(1513194269.488704) can0 20A#01B0000000004E20
(1513194269.489452) can0 2A4#1024898200007D00
(1513194269.490343) can0 3AA#0022200000000000
(1513194269.490593) can0 3AB#1200000040000000
(1513194269.490950) can0 2AC#3000000000000000
(1513194269.493824) can0 076#BE80EFCBF41D9000
(1513194269.494447) can0 3A7#0E401A045F700000
(1513194269.496332) can0 167#72800510001A1000
(1513194269.496702) can0 202#043D480060991D99
(1513194269.497199) can0 204#C0007D02F8000000
(1513194269.498950) can0 3CA#EBD4000004000000
(1513194269.499448) can0 2A4#21007D00007D0000
(1513194269.503859) can0 213#FFFF00040001FF40
(1513194269.504340) can0 216#E4D2A54900000000
(1513194269.504704) can0 415#1D96DC4208010801
(1513194269.505842) can0 167#72800510001A1000
(1513194269.505942) can0 171#646C000000000000
(1513194269.506330) can0 202#043D500060991D98
(1513194269.506456) can0 204#C0007D02F8000000
(1513194269.506702) can0 261#0000000000000000
(1513194269.506964) can0 42F#7D04002E661102FA
(1513194269.507469) can0 43E#0061100000000000
(1513194269.508214) can0 45E#208C19230214A800
(1513194269.508716) can0 048#000000000700E000
(1513194269.508966) can0 076#BE80EFCBF81D9100
(1513194269.509341) can0 14C#0800000100000000
(1513194269.509452) can0 20A#01B0000000004E20
(1513194269.509706) can0 2A4#227D00007D000221
(1513194269.509937) can0 412#0000000000000000
(1513194269.510313) can0 433#0000000000900000
(1513194269.510438) can0 470#019BC09900102000
(1513194269.510687) can0 40A#C1023130373639FF
(1513194269.510937) can0 4A2#0000000000000000
(1513194269.513436) can0 169#0082C00000000000
(1513194269.515309) can0 2A0#FFFFFFFF00001E00
(1513194269.516339) can0 167#72800610001A1000
(1513194269.516713) can0 202#043D580060991D97
(1513194269.516946) can0 204#C0007D02F7000000
(1513194269.519469) can0 2A4#2300021900022C00
(1513194269.523827) can0 213#FFFF00040001FF40
(1513194269.524318) can0 216#FEECBF6300000000
(1513194269.524957) can0 415#1D97E04008010801
(1513194269.525307) can0 416#5800F60001000000
(1513194269.525681) can0 167#72800510001A1000
(1513194269.525930) can0 202#043C600060991D97
(1513194269.526318) can0 204#C0007D02F7000000
(1513194269.528582) can0 3A6#0E401A045F700000
(1513194269.528726) can0 076#BE80EFD3F41D9200
(1513194269.528955) can0 109#17BB31001D970000
(1513194269.529319) can0 20A#01B0000000004E20
(1513194269.529443) can0 2A4#24027D00023B0002
(1513194269.529709) can0 3CA#EBD4000004000000
(1513194269.536456) can0 167#72800510001A1000
(1513194269.536712) can0 171#646C000000000000
(1513194269.537205) can0 202#043C680060991D96
(1513194269.537439) can0 204#C0007D02F7000000
(1513194269.537942) can0 42F#7D04002E661102FA
(1513194269.539438) can0 2A4#25030B0000000000
(1513194269.539688) can0 5C6#C600FFFFFFFFFFFF
(1513194269.543828) can0 213#FFFF00040001FF40
(1513194269.544333) can0 216#1805D87D00000000
(1513194269.544836) can0 415#1D9CE43A08010801
(1513194269.546078) can0 167#72800510001A1000
(1513194269.546332) can0 202#043B700060991D96
(1513194269.546560) can0 204#C0007D02F6000000
(1513194269.548184) can0 45E#715EFA9C4AE66530
(1513194269.548554) can0 076#BE80EFE3EE1D9200
(1513194269.548804) can0 20A#01B0000000004E20
(1513194269.551071) can0 04C#106FFFC000000000
(1513194269.555056) can0 18A#0020180114000000
(1513194269.555292) can0 3E5#0000000080000000
(1513194269.556051) can0 156#9400000003000000
(1513194269.556556) can0 166#75200000E8330000
(1513194269.556790) can0 2A1#FFFFFFFF00000000
(1513194269.557042) can0 167#72800610001A1000
(1513194269.557290) can0 178#000001FE0E82CA82
(1513194269.557549) can0 179#1A100000BA580A95
(1513194269.558076) can0 202#0439780060991D97
(1513194269.558303) can0 51E#1E04000000000000
(1513194269.558551) can0 204#C0007D02F6000000
(1513194269.558801) can0 261#0000000000000000
(1513194269.559050) can0 262#0000000000000000
(1513194269.559301) can0 287#0000000000000000
(1513194269.559551) can0 331#C0D305B80A370C04
(1513194269.559800) can0 221#8A10080000000000
(1513194269.560040) can0 30A#D700000000000000
(1513194269.560299) can0 224#A480200000000000
(1513194269.560551) can0 346#000000030300C000
(1513194269.560675) can0 228#7032EE1092469978
(1513194269.560933) can0 348#0000000000000000
(1513194269.561308) can0 3CA#EBD4000004000000
(1513194269.561418) can0 412#0000000000000000
(1513194269.561683) can0 421#0200580000006600
(1513194269.562012) can0 42D#0002B9000000F000
(1513194269.562165) can0 430#450035F708002401
(1513194269.562415) can0 43E#0061100000000000
(1513194269.562664) can0 434#43DC700020FFF3DA
(1513194269.563789) can0 213#FFFF00040001FF40
(1513194269.564303) can0 216#3221F29800000000
(1513194269.564679) can0 415#1D96E83F08010801
(1513194269.566073) can0 167#72800610001A1000
(1513194269.566287) can0 171#646C000000000000
(1513194269.566565) can0 202#0449000060991D96
(1513194269.566786) can0 204#C0007D02F6000000
(1513194269.567037) can0 42F#7D04002E661102FA
(1513194269.568550) can0 076#BE80EFE3F11D8F00
(1513194269.568786) can0 20A#01B0000000004E20
(1513194269.576436) can0 167#72800610001A1000
(1513194269.576809) can0 202#0448080060991D96
(1513194269.577192) can0 204#C0007D02F6000000
(1513194269.579058) can0 3D8#0000000080C54830
(1513194269.579291) can0 3CD#0000000000000000
(1513194269.583792) can0 213#FFFF00040001FF40
(1513194269.584299) can0 216#4C3A0CB200000000
(1513194269.585043) can0 415#1D96EC3E08010801
(1513194269.586037) can0 167#72800610001A1000
(1513194269.586287) can0 202#0447100060991D96
(1513194269.586528) can0 204#C0007D02F6000000
(1513194269.588152) can0 45E#815EFA784AE66180
(1513194269.588528) can0 076#BE80EFDBF81D8D00
(1513194269.588777) can0 20A#01B0000000004E20
(1513194269.589040) can0 3CA#EBD4000004000000
(1513194269.589287) can0 315#000000000000088A
(1513194269.589526) can0 2A4#1024898200007D00
(1513194269.590916) can0 2AC#3000000000000000
(1513194269.594911) can0 2D5#0304000001924800
(1513194269.595296) can0 223#100001C001000000
(1513194269.595444) can0 2D6#0000000000000000
(1513194269.595805) can0 2D7#0000000000000000
(1513194269.596033) can0 2D8#0814170000000000
(1513194269.596271) can0 2D9#0877773038309060
(1513194269.596415) can0 167#72800610001A1000
(1513194269.596665) can0 171#646C000000000000
(1513194269.596916) can0 2DC#1F00000000000000
(1513194269.597282) can0 2DE#0300000000000000
(1513194269.597406) can0 202#0447180060991D95
(1513194269.597644) can0 204#C0007D02F6000000
(1513194269.597907) can0 2F2#0000000000000000
(1513194269.598281) can0 2F3#0000000000000000
(1513194269.598406) can0 42F#7D04002E661102FA
(1513194269.598656) can0 2F5#3008000000000000
(1513194269.598906) can0 2F6#0000000000000000
(1513194269.599304) can0 2F7#0C02000000000400
(1513194269.599405) can0 2A4#21007D00007D0000
(1513194269.599670) can0 2F8#0000000000000000
(1513194269.599906) can0 2F9#5951540000000000
(1513194269.600269) can0 3E8#4000000000000000
(1513194269.600552) can0 4D0#0000000000000000
(1513194269.603808) can0 213#FFFF00040001FF40
(1513194269.604309) can0 216#675427CB00000000
(1513194269.604683) can0 415#1D92F04108000800
(1513194269.604917) can0 2DA#002A022400000000
(1513194269.605315) can0 2DB#0000000000000000
(1513194269.605410) can0 2E6#0000000000000000
(1513194269.605916) can0 167#72800610001A1100
(1513194269.606291) can0 202#0447200060991D94
(1513194269.606540) can0 204#C0007D02F6000000
(1513194269.606774) can0 261#0000000000000000
(1513194269.607155) can0 43E#0061100000000000
(1513194269.608529) can0 048#000000000700E000
(1513194269.608777) can0 076#BE80EFE3F81D8E00
(1513194269.609026) can0 20A#01B0000000004E20
(1513194269.609266) can0 412#0000000000000000
(1513194269.609516) can0 2A4#227D00007D000221
(1513194269.609766) can0 42C#B030C480640004A8
(1513194269.610025) can0 433#0000000000900000
(1513194269.610274) can0 470#019BC09900102000
(1513194269.610516) can0 4A2#0000000000000000
(1513194269.616392) can0 167#72800610001A1000
(1513194269.616910) can0 202#0446280060991D94
(1513194269.617157) can0 204#C0007D02F6000000
(1513194269.618888) can0 3CA#EBD4000004000000
(1513194269.619262) can0 2A4#2300021900022C00
(1513194269.623784) can0 213#FFFF00040001FF40
(1513194269.624280) can0 216#806E41E500000000
(1513194269.624644) can0 415#1D93F43F08000800
(1513194269.624904) can0 416#5900F50001000000
(1513194269.625891) can0 167#72800610001A1000
(1513194269.626268) can0 171#646C000000000000
(1513194269.626396) can0 202#0446300060991D93
(1513194269.626646) can0 204#C0007D02F6000000
(1513194269.626894) can0 42F#7D04002E661102FA
(1513194269.628533) can0 076#BE80EFE3EE1D8E00
(1513194269.628767) can0 20A#01B0000000004E20
(1513194269.629267) can0 2A4#24027D00023B0002
(1513194269.633672) can0 109#17B331001D930000
(1513194269.636419) can0 167#72800610001A1000
(1513194269.636919) can0 202#0445380060991D93
(1513194269.637153) can0 204#C0007D02F6000000
(1513194269.638176) can0 290#0000000000000000
(1513194269.639328) can0 2A4#25030B0000000000
(1513194269.643828) can0 213#FFFF00040001FF40
(1513194269.644277) can0 216#9A885BFF00000000
(1513194269.645028) can0 415#1D91F84008000800
(1513194269.645776) can0 167#72800610001A1000
(1513194269.646009) can0 202#0445400060991D92
(1513194269.646260) can0 204#C0007D02F6000000
(1513194269.648522) can0 076#BE80EFD3F01D8D00
(1513194269.648757) can0 20A#01B0000000004E20
(1513194269.649002) can0 3CA#EBD4000004000000
(1513194269.651272) can0 04C#106FFFC000000000
(1513194269.654276) can0 18A#0020180114000000
(1513194269.655910) can0 156#9400000003000000
(1513194269.656373) can0 166#75200000E8330000
(1513194269.656621) can0 167#72800610001A1000
(1513194269.656871) can0 2A1#FFFFFFFF00000000
(1513194269.657121) can0 171#646C000000000000
(1513194269.657370) can0 178#000001FF0E82CA82
(1513194269.657619) can0 179#1A100000BA630A99
(1513194269.658145) can0 202#0444480060991D92
(1513194269.658369) can0 204#C0007D02F6000000
(1513194269.658871) can0 261#0000000000000000
(1513194269.659119) can0 262#0000000000000000
(1513194269.659369) can0 346#000000030300C000
(1513194269.659619) can0 412#0000000000000000
(1513194269.659869) can0 348#0000000000000000
(1513194269.660118) can0 421#0200580000006600
(1513194269.660367) can0 42D#0002BA000000F000
(1513194269.660618) can0 42F#7D04002E661102F9
(1513194269.660867) can0 430#450035F708002401
(1513194269.661117) can0 43E#0061100000000000
(1513194269.661242) can0 434#43DC700020FFF3E2
(1513194269.663752) can0 213#FFFF00040001FE40
(1513194269.664252) can0 216#B4A1741900000000
(1513194269.664612) can0 415#1D93FC3D08000800
(1513194269.665262) can0 077#F7FD17FF5001C101
(1513194269.665766) can0 167#72800610001A1000
(1513194269.666022) can0 202#0443500060991D92
(1513194269.666236) can0 204#C0007D02F6000000
(1513194269.668375) can0 076#BE80EFE3F51D8C00
(1513194269.668610) can0 188#4000000000000000
(1513194269.668861) can0 20A#01B0000000004E20
(1513194269.676121) can0 167#72800610001A1000
(1513194269.676609) can0 202#0442580060991D92
(1513194269.676857) can0 204#C0007D02F6000000
(1513194269.678370) can0 5E2#E200FFFFFFFFFFFF
(1513194269.678739) can0 3CA#EBD4000004000000
(1513194269.683759) can0 213#FFFF00040001FE40
(1513194269.683978) can0 077#F7FE17FF5001C101
(1513194269.684265) can0 216#CEBD8E3300000000
(1513194269.684601) can0 415#1D93C04C08000800
(1513194269.685753) can0 167#72800610001A1000
(1513194269.685977) can0 171#646C000000000000
(1513194269.686225) can0 202#0442600060991D91
(1513194269.686475) can0 204#C0007D02F6000000
(1513194269.686601) can0 42F#7D04002E661102F9
(1513194269.688365) can0 076#BE80EFD3F81D8B00
(1513194269.688599) can0 20A#01B0000000004E20
(1513194269.689116) can0 315#000000000000088D
(1513194269.689383) can0 2A4#1024898200007D00
(1513194269.690374) can0 3AA#0022200000000000
(1513194269.690625) can0 3AB#1200000040000000
(1513194269.690848) can0 2AC#3000000000000000
(1513194269.694347) can0 3A7#0E401A045F700000
(1513194269.696111) can0 167#72800610001A1100
(1513194269.696609) can0 202#0441680060991D91
(1513194269.697123) can0 204#C0007D02F6000000
(1513194269.699255) can0 2A4#21007D00007D0000
(1513194269.703790) can0 213#FFFF00040001FE40
(1513194269.703989) can0 077#F7FF17FF5001C101
(1513194269.704223) can0 216#E8D6A84E00000000
(1513194269.704911) can0 415#1D92C44C08000800
(1513194269.705915) can0 167#72800610001A1100
(1513194269.706113) can0 202#0440700060991D91
(1513194269.706348) can0 204#C0007D02F6000000
(1513194269.706592) can0 261#0000000000000000
(1513194269.707126) can0 43E#0061100000000000
(1513194269.708484) can0 048#000000000700E000
(1513194269.708719) can0 076#BE80EFDBF81D8B00
(1513194269.708967) can0 14C#0800000100000000
(1513194269.709218) can0 20A#01B0000000004E20
(1513194269.709473) can0 2A4#227D00007D000221
(1513194269.709716) can0 3CA#EBD4000004000000
(1513194269.709970) can0 412#0000000000000000
(1513194269.710216) can0 40A#C104014107F670C1
(1513194269.710466) can0 433#0000000000900000
(1513194269.710716) can0 470#019BC09900102000
(1513194269.710966) can0 4A2#0000000000000000
(1513194269.716114) can0 167#72800610001A1100
(1513194269.716348) can0 171#646C000000000000
(1513194269.716862) can0 202#043F780060991D91
(1513194269.717100) can0 204#C0007D02F6000000
(1513194269.717863) can0 42F#7D04002E661102F9
(1513194269.719238) can0 2A4#2300021900022C00
(1513194269.723746) can0 213#FFFF00040001FF40
(1513194269.724248) can0 216#01F0C26800000000
(1513194269.724615) can0 415#1D8DC85008000800
(1513194269.724838) can0 416#5A00F40001000000
(1513194269.725610) can0 167#72800610001A1100
(1513194269.725847) can0 202#044E000060991D91
(1513194269.726223) can0 204#C0007D02F6000000
(1513194269.728359) can0 076#BE80EFBBF41D8C00
(1513194269.728585) can0 20A#01B0000000004E20
(1513194269.729242) can0 2A4#24027D00023B0002
(1513194269.729461) can0 3A6#0E401A045F700000
(1513194269.736355) can0 167#72800610001A1200
(1513194269.736869) can0 202#044E080060991D90
(1513194269.737211) can0 204#C0007D02F6000000
(1513194269.738725) can0 109#17B331001D900000
(1513194269.738856) can0 3CA#EBD4000004000000
(1513194269.739226) can0 2A4#25030B0000000000
(1513194269.743726) can0 213#FFFF00040001FE40
(1513194269.744222) can0 216#1D0ADD8100000000
(1513194269.744598) can0 415#1D92CC4A08000800
(1513194269.745724) can0 167#72800610001A1200
(1513194269.746065) can0 171#646C000000000000
(1513194269.746212) can0 202#044D100060991D90
(1513194269.746458) can0 204#C0007D02F7000000
(1513194269.746700) can0 42F#7D04002E661102F9
(1513194269.748361) can0 076#BE80EFBBF01D8C00
(1513194269.748578) can0 20A#01B0000000004E20
(1513194269.750860) can0 04C#106FFFC000000000
(1513194269.753767) can0 18A#0020180114000000
(1513194269.755893) can0 156#9400000003000000
(1513194269.756327) can0 166#75200000E8330000
(1513194269.756574) can0 167#72800710001A1200
(1513194269.756824) can0 2A1#FFFFFFFF00000000
(1513194269.757074) can0 178#000002000E82CA82
(1513194269.757324) can0 179#1A120000BA6D0A9D
(1513194269.757845) can0 202#044C180060991D90
(1513194269.758071) can0 204#C0007D02F7000000
(1513194269.758569) can0 261#0000000000000000
(1513194269.758818) can0 262#0000000000000000
(1513194269.759076) can0 287#0000000000000000
(1513194269.759339) can0 412#0000000000000000
(1513194269.759595) can0 30A#D700000000000000
(1513194269.759817) can0 421#0200580000006600
(1513194269.760068) can0 346#000000030300C000
(1513194269.760328) can0 42D#0002BA000000F000
(1513194269.760576) can0 348#0000000000000000
(1513194269.760826) can0 43E#0061100000000000
(1513194269.760944) can0 430#450035F708002401
(1513194269.761202) can0 434#43DC700020FFF3D9
(1513194269.763716) can0 213#FFFF00040001FE40
(1513194269.764228) can0 216#3624F79B00000000
(1513194269.764985) can0 415#1D91D04A08000800
(1513194269.765726) can0 167#72800710001A1200
(1513194269.765816) can0 202#044B200060991D90
(1513194269.766199) can0 204#C0007D02F7000000
(1513194269.768338) can0 076#BE80EFE3F31D8A00
(1513194269.768572) can0 20A#01B0000000004E20
(1513194269.768860) can0 3CA#EBD4000004000000
(1513194269.776224) can0 167#72800710001A1200
(1513194269.776330) can0 171#646C000000000000
(1513194269.776846) can0 202#044A280060991D90
(1513194269.777205) can0 204#C0007D02F7000000
(1513194269.777569) can0 42F#7D04002E661102F9
(1513194269.783718) can0 213#FFFF00040001FE40
(1513194269.784202) can0 216#503D11B500000000
(1513194269.784969) can0 415#1D91D44908000800
(1513194269.785718) can0 167#72800710001A1200
(1513194269.785935) can0 202#0449300060991D90
(1513194269.786201) can0 204#C0007D02F6000000
(1513194269.788342) can0 076#BE80EFF3FC1D8A00
(1513194269.788572) can0 20A#01B0000000004E20
(1513194269.788955) can0 315#0000000000000892
(1513194269.789199) can0 3D8#0000000080C53030
(1513194269.789431) can0 2A4#1024898200007D00
(1513194269.790805) can0 2AC#3000000000000000
(1513194269.796066) can0 167#72800710001A1300
(1513194269.796574) can0 202#0449380060991D8F
(1513194269.797052) can0 204#C0007D02F6000000
(1513194269.798590) can0 3CA#EBD4000004000000
(1513194269.799081) can0 2A4#21007D00007D0000
(1513194269.803701) can0 213#FFFF00040001FF40
(1513194269.804197) can0 216#6A572ACF00000000
(1513194269.804571) can0 415#1D8FD84A08000800
(1513194269.805697) can0 167#72800710001A1300
(1513194269.806090) can0 171#646C000000000000
(1513194269.806201) can0 202#0448400060991D8F
(1513194269.806445) can0 204#C0007D02F6000000
(1513194269.806679) can0 261#0000000000000000
(1513194269.806928) can0 42F#7D04002E661202F9
(1513194269.807296) can0 43E#0061100000000000
(1513194269.808445) can0 048#000000000700E000
(1513194269.808547) can0 076#BE80EFE3F81D8A00
(1513194269.808805) can0 20A#01B0000000004E20
(1513194269.809179) can0 2A4#227D00007D000221
(1513194269.809296) can0 412#0000000000000000
(1513194269.809553) can0 433#0000000000900000
(1513194269.809804) can0 470#019BC09900102000
(1513194269.810193) can0 4A2#0000000000000000
(1513194269.810296) can0 3B8#FFFFFFFF00000000
(1513194269.813697) can0 3CA#C1FC000004000000
(1513194269.816230) can0 167#72800710001A1200
(1513194269.816551) can0 202#0447480060991D8F
(1513194269.816798) can0 204#C0007D02F6000000
(1513194269.819102) can0 2A4#2300021900022C00
(1513194269.823729) can0 213#FFFF00040001FE40
(1513194269.824181) can0 216#847244E800000000
(1513194269.824813) can0 415#1D8BDC4D08000800
(1513194269.825185) can0 416#5B00F30001000000
(1513194269.825559) can0 167#72800710001A1200
(1513194269.825793) can0 202#0447500060991D8E
(1513194269.826178) can0 204#C0007D02F8000000
(1513194269.828319) can0 076#BE80EFE3F01D8B00
(1513194269.828551) can0 20A#01B0000000004E20
(1513194269.828792) can0 3CA#EAF8000000000000
(1513194269.829042) can0 2A4#24027D00023B0002
(1513194269.836308) can0 167#72800710001A1200
(1513194269.836535) can0 171#646C000000000000
(1513194269.837051) can0 202#0447580060991D8D
(1513194269.837300) can0 204#C0007D02F8000000
(1513194269.837810) can0 42F#7D04002E661202F9
(1513194269.838055) can0 290#0000000000000000
(1513194269.839102) can0 2A4#25030B0000000000
(1513194269.843693) can0 109#17C331001D8D0000
(1513194269.843907) can0 213#FFFF00040001FE40
(1513194269.844180) can0 216#9D8C5E0200000000
(1513194269.844690) can0 415#1D8DE04A08000800
(1513194269.845724) can0 167#72800710001A1300
(1513194269.845906) can0 202#0446600060991D8D
(1513194269.846161) can0 204#C0007D02F8000000
(1513194269.848194) can0 076#BE80EFDBF21D8A00
(1513194269.848408) can0 20A#01B0000000004E20
(1513194269.851189) can0 04C#106FFFC000000000
(1513194269.853347) can0 18A#0020180114000000
(1513194269.854104) can0 3CA#6BFC000004000000
(1513194269.855968) can0 156#9400000003000000
(1513194269.856279) can0 166#75200000E8330000
(1513194269.856541) can0 167#72800710001A1300
(1513194269.856915) can0 2A1#FFFFFFFF00000000
(1513194269.857153) can0 178#000002000E82CA82
(1513194269.857275) can0 179#1A130000BA780AA2
(1513194269.857795) can0 202#0445680060991D8D
(1513194269.858028) can0 204#C0007D02F8000000
(1513194269.858529) can0 261#0000000000000000
(1513194269.858777) can0 262#0000000000000000
(1513194269.859029) can0 346#000000030300C000
(1513194269.859277) can0 412#0000000000000000
(1513194269.859527) can0 348#0000000000000000
(1513194269.859777) can0 421#0200580000006500
(1513194269.860027) can0 42C#B430C480640004A8
(1513194269.860302) can0 42D#0002BA000000F000
(1513194269.860526) can0 430#450035F708002401
(1513194269.860777) can0 43E#0061100000000000
(1513194269.861045) can0 434#43DC700020FFF3E2
(1513194269.863649) can0 213#FFFF00040001FE40
(1513194269.864148) can0 216#B9A6781C00000000
(1513194269.864649) can0 415#1D92E44408000800
(1513194269.865650) can0 167#72800710001A1300
(1513194269.866119) can0 171#646C000000000000
(1513194269.866136) can0 202#0444700060991D8D
(1513194269.866399) can0 204#C0007D02F7000000
(1513194269.866649) can0 42F#7D04002E661202F9
(1513194269.868164) can0 076#BE80EFD3F51D8800
(1513194269.868397) can0 20A#01B0000000004E20
(1513194269.868647) can0 3CA#40F8000000000000
(1513194269.870145) can0 3B5#01180110010B0100
(1513194269.876152) can0 167#72800710001A1300
(1513194269.876525) can0 202#0442780060991D8E
(1513194269.876776) can0 204#C0007D02F7000000
(1513194269.883667) can0 213#FFFF00040001FE40
(1513194269.884172) can0 216#D2C0933700000000
(1513194269.884952) can0 415#1D8BE84A08000800
(1513194269.885676) can0 167#72800710001A1300
(1513194269.885885) can0 202#0451000060991D8E
(1513194269.886152) can0 204#C0007D02F8000000
(1513194269.888166) can0 076#BE80EFD3F81D8700
(1513194269.888395) can0 20A#01B0000000004E20
(1513194269.888638) can0 3CA#6BFC000004000000
(1513194269.888887) can0 315#0000000000000899
(1513194269.889138) can0 463#98B0842818B03800
(1513194269.889377) can0 2A4#1024898200007D00
(1513194269.889626) can0 466#98B0842818B03800
(1513194269.890155) can0 3AA#0022200000000000
(1513194269.890401) can0 3AB#1200000040000000
(1513194269.890776) can0 2AC#3000000000000000
(1513194269.894399) can0 3A7#0E401A045F700000
(1513194269.896137) can0 167#72800710001A1300
(1513194269.896248) can0 171#646C000000000000
(1513194269.897124) can0 202#0451080060991D8D
(1513194269.897247) can0 204#C0007D02F8000000
(1513194269.898211) can0 42F#7D04002E661202F9
(1513194269.899022) can0 2A4#21007D00007D0000
(1513194269.903656) can0 213#FFFF00040001FE40
(1513194269.904180) can0 216#ECDAAD5100000000
(1513194269.904648) can0 415#1D8DEC4708000800
(1513194269.905679) can0 167#72800710001A1300
(1513194269.905885) can0 202#0450100060991D8D
(1513194269.906130) can0 204#C0007D02F8000000
(1513194269.906367) can0 261#0000000000000000
(1513194269.906741) can0 43E#0061100000000000
(1513194269.908240) can0 048#000000000700E000
(1513194269.908370) can0 076#BE80EFEBF61D8700
(1513194269.908642) can0 14C#0800000100000000
(1513194269.908885) can0 20A#01B0000000004E20
(1513194269.909136) can0 2A4#227D00007D000221
(1513194269.909373) can0 412#0000000000000000
(1513194269.909624) can0 433#0000000000900000
(1513194269.909898) can0 470#019BC09900102000
(1513194269.910143) can0 3B2#4048061210050002
(1513194269.910367) can0 40A#C110409060250000
(1513194269.910613) can0 4A2#0000000000000000
(1513194269.916112) can0 167#72800810001A1300
(1513194269.916520) can0 202#0450180060991D8C
(1513194269.916756) can0 204#C0007D02F8000000
(1513194269.918517) can0 3CA#EBFC000004000000
(1513194269.919004) can0 2A4#2300021900022C00
(1513194269.923620) can0 213#FFFF00040001FE40
(1513194269.924127) can0 216#06F3C66B00000000
(1513194269.924501) can0 415#1D8BF04808000800
(1513194269.924752) can0 416#5C00F20001000000
(1513194269.925744) can0 167#72800810001A1300
(1513194269.926107) can0 171#646C000000000000
(1513194269.926232) can0 202#044F200060991D8C
(1513194269.926483) can0 204#C0007D02F8000000
(1513194269.926742) can0 42F#7D04002E661202F9
(1513194269.928118) can0 076#BE80EFF3F21D8800
(1513194269.928368) can0 20A#01B0000000004E20
(1513194269.928628) can0 3A6#0E401A045F700000
(1513194269.928884) can0 2A4#24027D00023B0002
(1513194269.936256) can0 167#72800710001A1400
(1513194269.936799) can0 202#044E280060991D8C
(1513194269.937126) can0 204#C0007D02F8000000
(1513194269.938890) can0 2A4#25030B0000000000
(1513194269.943672) can0 213#FFFF00040001FE40
(1513194269.944145) can0 216#200DE08400000000
(1513194269.944764) can0 415#1D8EF44408000800
(1513194269.945751) can0 167#72800810001A1400
(1513194269.946131) can0 202#044E300060991D8B
(1513194269.946225) can0 204#C0007D02F8000000
(1513194269.948100) can0 076#BE80EFF3F41D8700
(1513194269.948392) can0 109#17C331001D8B0000
(1513194269.948612) can0 20A#01B0000000004E20
(1513194269.948880) can0 3CA#EBFC000004000000
(1513194269.949098) can0 3E1#8000010701800000
(1513194269.950750) can0 04C#106FFFC000000000
(1513194269.952258) can0 18A#0020180114000000
(1513194269.955738) can0 156#9400000003000000
(1513194269.956263) can0 166#75200000E8330000
(1513194269.956490) can0 167#72800810001A1400
(1513194269.956739) can0 171#646C000000000000
(1513194269.956979) can0 2A1#FFFFFFFF00000000
(1513194269.957229) can0 178#000002000E82CA82
(1513194269.957477) can0 179#1A140000BA820AA5
(1513194269.957978) can0 202#044D380060991D8B
(1513194269.958216) can0 204#C0007D02F8000000
(1513194269.958728) can0 261#0000000000000000
(1513194269.958970) can0 287#0000000000000000
(1513194269.959217) can0 262#0000000000000000
(1513194269.959468) can0 30A#D700000000000000
(1513194269.959719) can0 412#0000000000000000
(1513194269.959966) can0 346#000000030300C000
(1513194269.960216) can0 421#0200580000006600
(1513194269.960466) can0 348#0000000000000000
(1513194269.960716) can0 42D#0002BA000000F000
(1513194269.960966) can0 42F#7D04002E661202F9
(1513194269.961218) can0 430#450035F708002401
(1513194269.961340) can0 43E#0061100000000000
(1513194269.961590) can0 434#43DC700020FFF3E1
(1513194269.963604) can0 213#FFFF00040001FE40
(1513194269.964102) can0 216#3928FA9E00000000
(1513194269.964590) can0 415#1D92F83F08000800
(1513194269.964849) can0 076#BE81EFE3F71D8600
(1513194269.965615) can0 167#72800810001A1400
(1513194269.965849) can0 202#044B400060991D8C
(1513194269.966088) can0 204#C0007D02F7000000
(1513194269.968102) can0 20A#01B0000000004E20
(1513194269.976158) can0 167#72800810001A1500
(1513194269.976461) can0 202#0449480060991D8D
(1513194269.976707) can0 204#C0007D02F7000000
(1513194269.978246) can0 076#3E81CFE3F61D8600
(1513194269.978460) can0 3CA#EBFC000004000000
(1513194269.983607) can0 213#FFFF00040001FE40
(1513194269.984158) can0 216#534214B800000000
(1513194269.984458) can0 415#1D8CFC4408000800
(1513194269.985601) can0 167#72800810001A1500
(1513194269.985830) can0 171#646C000000000000
(1513194269.986078) can0 202#0449500060991D8C
(1513194269.986330) can0 204#C0007D02F7000000
(1513194269.986587) can0 42F#7D04002E661202F9
(1513194269.988090) can0 20A#01B0000000004E20
(1513194269.988716) can0 315#000000000000089A
(1513194269.988956) can0 2A4#1024898200007D00
(1513194269.990703) can0 2AC#3000000000000000
(1513194269.993353) can0 076#BE81EFE3FA1D8500
(1513194269.996153) can0 167#72800810001A1500
(1513194269.996457) can0 202#0448580060991D8C
(1513194269.996951) can0 204#C0007D02F7000000
(1513194269.998901) can0 2A4#21007D00007D0000
(1513194270.003029) can0 213#FFFF00040001FE40
(1513194270.003898) can0 216#6E5C2DD200000000
(1513194270.004619) can0 415#1D90C04F08000800
(1513194270.005647) can0 167#72800910001A1500
(1513194270.005870) can0 202#0447600060991D8C
(1513194270.006083) can0 204#C0007D02F7000000
(1513194270.006318) can0 261#0000000000000000
(1513194270.006821) can0 43E#0061100000000000
(1513194270.008080) can0 048#000000000700E000
(1513194270.008318) can0 076#BE81EFE3F81D8600
(1513194270.008593) can0 20A#01B0000000004E20
(1513194270.008847) can0 3CA#EBFC000004000000
(1513194270.009068) can0 2A4#227D00007D000221
(1513194270.009318) can0 412#0000000000000000
(1513194270.009568) can0 433#0000000000900000
(1513194270.009817) can0 470#019BC09900102000
(1513194270.010066) can0 4A2#0000000000000000
(1513194270.016069) can0 167#72800910001A1500
(1513194270.016313) can0 171#646C000000000000
(1513194270.016732) can0 202#0446680060991D8C
(1513194270.017065) can0 204#C0007D02F7000000
(1513194270.017461) can0 42F#7D04002E661202F9
(1513194270.018823) can0 2A4#2300021900022C00
(1513194270.019062) can0 084#1100015B2C230E00
(1513194270.023572) can0 213#FFFF00040001FE40
(1513194270.024062) can0 216#887649EC00000000
(1513194270.024434) can0 415#1D8EC45008000800
(1513194270.024684) can0 416#5D00F10001000000
(1513194270.025697) can0 167#72800910001A1500
(1513194270.026059) can0 202#0444700060991D8D
(1513194270.026182) can0 204#C0007D02F6000000
(1513194270.027960) can0 076#BE81EFE3F41D8700
(1513194270.028182) can0 20A#01B0000000004E20
(1513194270.028832) can0 2A4#24027D00023B0002
(1513194270.036203) can0 167#72800910001A1600
(1513194270.036716) can0 202#0443780060991D8D
(1513194270.037054) can0 204#C0007D02F6000000
(1513194270.037977) can0 290#0000000000000000
(1513194270.038181) can0 3CA#EBFC000004000000
(1513194270.038841) can0 2A4#25030B0000000000
(1513194270.043592) can0 213#FFFF00040001FE40
(1513194270.044095) can0 216#A28F620700000000
(1513194270.044436) can0 415#1D8EC84F08000800
(1513194270.045556) can0 167#72800910001A1600
(1513194270.045801) can0 171#646C000000000000
(1513194270.046050) can0 202#0453000060991D8C
(1513194270.046300) can0 204#C0007D02F6000000
(1513194270.046550) can0 42F#7D04002E661302F8
(1513194270.047949) can0 076#BE81EFE3F41D8600
(1513194270.048174) can0 20A#01B0000000004E20
(1513194270.050839) can0 04C#106FFFC000000000
(1513194270.052074) can0 18A#0020180114000000
(1513194270.053573) can0 109#17B331001D8C0000
(1513194270.055821) can0 156#9400000003000000
(1513194270.056193) can0 166#75200000E8330000
(1513194270.056420) can0 167#72800910001A1600
(1513194270.056667) can0 081#0000000000000000
(1513194270.057053) can0 178#000001FF0E82CA82
(1513194270.057167) can0 179#1A160000BA8D0AA9
(1513194270.057430) can0 2A1#FFFFFFFF00000000
(1513194270.057678) can0 202#0452080060991D8C
(1513194270.058043) can0 3E6#0001040880000000
(1513194270.058167) can0 204#C0007D02F6000000
(1513194270.058417) can0 261#0000000000000000
(1513194270.058667) can0 262#0000000000000000
(1513194270.059041) can0 346#000000030300C000
(1513194270.059166) can0 412#0000000000000000
(1513194270.059417) can0 348#0000000000000000
(1513194270.059666) can0 421#0200580000006600
(1513194270.059917) can0 42D#0002BA000000F000
(1513194270.060166) can0 430#450035F708002401
(1513194270.060416) can0 43E#0061100000000000
(1513194270.060667) can0 434#43DC700020FFF3E0
(1513194270.063553) can0 213#FFFF00040001FE40
(1513194270.064051) can0 216#BCA97C2100000000
(1513194270.064550) can0 076#BE83EFD3F91D8400
(1513194270.064794) can0 415#1D91CC4B08000800
(1513194270.065690) can0 167#72800910001A1700
(1513194270.066074) can0 202#0451100060991D8C
(1513194270.066174) can0 204#C0007D02F7000000
(1513194270.068062) can0 20A#01B0000000004E20
(1513194270.068171) can0 3CA#EBFC000004000000
(1513194270.072311) can0 3DE#0000000080000000
(1513194270.076059) can0 167#72800910001A1700
(1513194270.076174) can0 171#646C000000000000
(1513194270.076677) can0 202#044F180060991D8D
(1513194270.077037) can0 204#C0007D02F7000000
(1513194270.077436) can0 42F#7D04002E661302F8
(1513194270.078176) can0 076#3E83CFD3F81D8400
(1513194270.083572) can0 213#FFFF00040001FE40
(1513194270.084068) can0 216#D6C3963A00000000
(1513194270.084569) can0 415#1D8AD05108010801
(1513194270.085568) can0 167#72800910001A1700
(1513194270.085788) can0 202#044F200060991D8C
(1513194270.086047) can0 204#C0007D02F6000000
(1513194270.087930) can0 20A#01B0000000004E20
(1513194270.088568) can0 315#0000000000000899
(1513194270.088788) can0 2A4#1024898200007D00
(1513194270.090181) can0 3AA#0022200000000000
(1513194270.090707) can0 2AC#3000000000000000
(1513194270.090924) can0 3AB#1200000040000000
(1513194270.093063) can0 076#BE83EFF3F81D8400
(1513194270.094429) can0 3A7#0E401A045F700000
(1513194270.096028) can0 167#72800910001A1700
(1513194270.096400) can0 202#044F280060991D8B
(1513194270.097034) can0 204#C0007D02F6000000
(1513194270.098298) can0 3CA#EBFC000004000000
(1513194270.098675) can0 2A4#21007D00007D0000
(1513194270.103564) can0 213#FFFF00040001FF40
(1513194270.104064) can0 216#EFDEB05400000000
(1513194270.104403) can0 415#1D8AD45008010801
(1513194270.105596) can0 167#72800910001A1700
(1513194270.105796) can0 171#646C000000000000
(1513194270.106079) can0 202#044E300060991D8B
(1513194270.106274) can0 204#C0007D02F5000000
(1513194270.106523) can0 261#0000000000000000
(1513194270.106773) can0 42F#7D04002E661302F8
(1513194270.107167) can0 43E#0061100000000000
(1513194270.107398) can0 59E#9E00FFFFFFFFFFFF
(1513194270.108020) can0 048#000000000700E000
(1513194270.108274) can0 076#BE83EFEBF61D8500
(1513194270.108520) can0 077#F7FF17FF5001C101
(1513194270.108775) can0 108#0004040040009E64
(1513194270.109021) can0 14C#0800000100000000
(1513194270.109279) can0 20A#01B0000000004E20
(1513194270.109541) can0 276#0000000000000000
(1513194270.109769) can0 277#0800000002828888
(1513194270.110020) can0 279#0050003C00960000
(1513194270.110291) can0 2A4#227D00007D000221
(1513194270.110519) can0 303#000008040E052000
(1513194270.110807) can0 38A#4300200208470000
(1513194270.111018) can0 3B3#4040001291050100
(1513194270.111144) can0 3D0#034F05B888000000
(1513194270.111392) can0 40A#C00000176E98BA00
(1513194270.111642) can0 412#0000000000000000
(1513194270.111892) can0 42C#B030C480640004A8
(1513194270.112143) can0 431#0000208008400086
(1513194270.112393) can0 432#2680000000040000
(1513194270.112648) can0 433#0000000000900000
(1513194270.112893) can0 435#0000000000000000
(1513194270.113141) can0 46A#0004208800000000
(1513194270.113392) can0 46B#D1A045F820008000
(1513194270.113640) can0 470#019BC09900102000
(1513194270.114105) can0 4A2#0000000000000000
(1513194270.116031) can0 167#72800A10001A1700
(1513194270.116388) can0 202#044E380060991D8A
(1513194270.116639) can0 204#C0007D02F5000000
(1513194270.118652) can0 2A4#2300021900022C00
(1513194270.123410) can0 213#FFFF00040001FE40
(1513194270.123774) can0 216#09F8CA6E00000000
(1513194270.124548) can0 415#1D8FD84A08010801
(1513194270.124773) can0 416#5E00F00001000000
(1513194270.125535) can0 167#72800A10001A1800
(1513194270.125767) can0 202#044D400060991D8A
(1513194270.126010) can0 204#C0007D02F5000000
(1513194270.127882) can0 076#BE83EFEBF01D8500
(1513194270.128131) can0 20A#01B0000000004E20
(1513194270.128391) can0 3CA#EBFC000004000000
(1513194270.128641) can0 2A4#24027D00023B0002
(1513194270.128891) can0 3A6#0E401A045F700000
(1513194270.136278) can0 167#72800A10001A1800
(1513194270.136517) can0 171#646C000000000000
(1513194270.137041) can0 202#044C480060991D8A
(1513194270.137129) can0 204#C0007D02F5000000
(1513194270.137647) can0 42F#7D04002E661302F8
(1513194270.138638) can0 591#9100FFFFFFFFFFFF
(1513194270.138879) can0 2A4#25030B0000000000
(1513194270.143255) can0 307#0100000000000000
(1513194270.143508) can0 213#FFFF00040001FE40
(1513194270.144007) can0 216#2412E38800000000
(1513194270.144497) can0 415#1D91DC4708010801
(1513194270.145506) can0 167#72800A10001A1800
(1513194270.145755) can0 202#044A500060991D8B
(1513194270.145996) can0 204#C0007D02F5000000
(1513194270.147755) can0 076#BE83EFFBF01D8300
(1513194270.147995) can0 20A#01B0000000004E20
(1513194270.150754) can0 04C#106FFFC000000000
(1513194270.151394) can0 18A#0020180114000000
(1513194270.155680) can0 156#9400000003000000
(1513194270.156147) can0 166#75200000E8330000
(1513194270.156389) can0 167#72800A10001A1800
(1513194270.156632) can0 178#000001FF0E82CA82
(1513194270.157006) can0 2A1#FFFFFFFF00000000
(1513194270.157130) can0 179#1A180000BA970AAE
(1513194270.157631) can0 202#0448580060991D8C
(1513194270.157889) can0 204#C0007D02F5000000
(1513194270.158395) can0 261#0000000000000000
(1513194270.158642) can0 109#17AB31001D8C0000
(1513194270.158891) can0 18B#0000001E00000000
(1513194270.159147) can0 262#0000000000000000
(1513194270.159397) can0 19A#0000000240000000
(1513194270.159647) can0 3CA#EBFC000004000000
(1513194270.159864) can0 220#1001000000000000
(1513194270.160113) can0 412#0000000000000000
(1513194270.160364) can0 225#2041800000000000
(1513194270.160613) can0 421#0200580000006600
(1513194270.160863) can0 287#0000000000000000
(1513194270.161113) can0 42D#0002BA000000F000
(1513194270.161363) can0 2F4#1001000000000000
(1513194270.161613) can0 43E#0061100000000000
(1513194270.161738) can0 2FD#0D000238FC000000
(1513194270.161988) can0 30A#D700000000000000
(1513194270.162363) can0 30F#0000000000000000
(1513194270.162612) can0 313#0009000000160000
(1513194270.162864) can0 315#0000000000000899
(1513194270.163115) can0 316#0000000000000000
(1513194270.163363) can0 317#03FE0006767D0400
(1513194270.163614) can0 213#FFFF00040001FE40
(1513194270.163862) can0 318#000000000012B000
(1513194270.163988) can0 216#3E2BFDA100000000
(1513194270.164237) can0 346#000000030300C000
(1513194270.164486) can0 415#1D92E04508010801
(1513194270.164736) can0 348#0000000000000000
(1513194270.164986) can0 350#0000000000000000
(1513194270.165237) can0 353#000000000037B0AC
(1513194270.165487) can0 167#72800A10001A1800
(1513194270.165737) can0 171#646C000000000000
(1513194270.165986) can0 202#0447600060991D8C
(1513194270.166236) can0 204#C0007D02F6000000
(1513194270.166485) can0 3C8#0000000000000000
(1513194270.166735) can0 42F#7D04002E661302F8
(1513194270.166986) can0 3E0#0000000080000000
(1513194270.167238) can0 3FB#0000000004000000
(1513194270.167486) can0 430#450035F708002401
(1513194270.167736) can0 434#43DC700020FFF3E2
(1513194270.167988) can0 45A#0000000000000000
(1513194270.168362) can0 076#BE83EFE3F91D8100
(1513194270.168610) can0 20A#01B0000000004E20
(1513194270.176017) can0 167#72800A10001A1800
(1513194270.176393) can0 202#0445680060991D8D
(1513194270.176752) can0 204#C0007D02F6000000
(1513194270.183508) can0 213#FFFF00040001FE40
(1513194270.183980) can0 216#584518BB00000000
(1513194270.184755) can0 415#1D86E45008020802
(1513194270.185754) can0 167#72800A10001A1800
(1513194270.185991) can0 202#0444700060991D8D
(1513194270.186228) can0 204#C0007D02F4000000
(1513194270.187866) can0 076#BE83EFE3F81D8100
(1513194270.188106) can0 20A#01B0000000004E20
(1513194270.188353) can0 3CA#EBFC000004000000
(1513194270.188602) can0 315#00000000000008A2
(1513194270.188851) can0 2A4#1024898200007D00
(1513194270.190614) can0 2AC#3000000000000000
(1513194270.195987) can0 167#72800A10001A1800
(1513194270.196098) can0 171#646C000000000000
(1513194270.196999) can0 202#0444780060991D8C
(1513194270.197096) can0 204#C0007D02F4000000
(1513194270.197849) can0 42F#7D04002E661302F8
(1513194270.198100) can0 04A#0200000000000000
(1513194270.198349) can0 04B#00C0D8D8D8D8C000
(1513194270.198600) can0 2A4#21007D00007D0000
(1513194270.198872) can0 3E7#0000000000000000
(1513194270.203495) can0 213#FFFF00040001FE40
(1513194270.204000) can0 216#725F32D500000000
(1513194270.204388) can0 415#1D86E84F08020802
(1513194270.205499) can0 167#72800A10001A1800
(1513194270.205749) can0 202#0455000060991D8A
(1513194270.205992) can0 204#C0007D02F4000000
(1513194270.206254) can0 261#0000000000000000
(1513194270.206748) can0 43E#0061100000000000
(1513194270.207870) can0 048#000000000700E000
(1513194270.208105) can0 076#BE83EFDBF41D8100
(1513194270.208354) can0 20A#01B0000000004E20
(1513194270.208591) can0 2A4#227D00007D000221
(1513194270.208841) can0 412#0000000000000000
(1513194270.209089) can0 433#0000000000900000
(1513194270.209339) can0 470#019BC09900102000
(1513194270.209588) can0 4A2#0000000000000000
(1513194270.215975) can0 167#72800A10001A1800
(1513194270.216473) can0 202#0455080060991D89
(1513194270.216724) can0 204#C0007D02F4000000
(1513194270.217972) can0 3CA#EBFC000004000000
(1513194270.218596) can0 2A4#2300021900022C00
(1513194270.222863) can0 213#FFFF00040001FE40
(1513194270.223244) can0 076#BE84EFDBF21D8100
(1513194270.223747) can0 216#8B794CF000000000
(1513194270.224242) can0 415#1D87EC4D08020802
(1513194270.224507) can0 416#5F00EF0001000000
(1513194270.225492) can0 167#72800A10001A1800
(1513194270.225727) can0 171#646C000000000000
(1513194270.226008) can0 202#0455100060991D88
(1513194270.226226) can0 204#C0007D02F4000000
(1513194270.226469) can0 42F#7D04002E661302F8
(1513194270.227734) can0 20A#01B0000000004E20
(1513194270.227976) can0 462#63EA8F2A34F0605C
(1513194270.228218) can0 464#9A802005CF301020
(1513194270.228467) can0 465#63EA8F2A34F0605C
(1513194270.228717) can0 2A4#24027D00023B0002
(1513194270.228958) can0 467#9A802005CF301020
(1513194270.236107) can0 167#72800A10001A1800
(1513194270.236616) can0 202#0454180060991D88
(1513194270.236973) can0 204#C0007D02F4000000
(1513194270.237991) can0 290#0000000000000000
(1513194270.238080) can0 076#3E84CFDBF21D8100
(1513194270.238492) can0 2A4#25030B0000000000
(1513194270.243490) can0 213#FFFF00040001FD40
(1513194270.243989) can0 216#A594660A00000000
(1513194270.244613) can0 415#1D89F04A08020802
(1513194270.245602) can0 167#72800A10001A1900
(1513194270.245979) can0 202#0454200060991D87
(1513194270.246209) can0 204#C0007D02F4000000
(1513194270.247852) can0 20A#01B0000000004E20
(1513194270.248081) can0 3CA#EBFC000004000000
(1513194270.249487) can0 18A#0020180114000000
(1513194270.250845) can0 04C#106FFFC000000000
(1513194270.253214) can0 076#BE84EFDBF41D8000
(1513194270.255707) can0 156#9400000003000000
(1513194270.256092) can0 166#75200000E8330000
(1513194270.256341) can0 167#72800A10001A1900
(1513194270.256591) can0 171#646C000000000000
(1513194270.256945) can0 2A1#FFFFFFFF00000000
(1513194270.257090) can0 178#000001FF0E82CA82
(1513194270.257319) can0 179#1A190000BAA20AB3
(1513194270.257841) can0 202#0453280060991D87
(1513194270.258068) can0 204#C0007D02F4000000
(1513194270.258319) can0 412#0000000000000000
(1513194270.258569) can0 346#000000030300C000
(1513194270.258822) can0 261#0000000000000000
(1513194270.259072) can0 262#0000000000000000
(1513194270.259319) can0 348#0000000000000000
(1513194270.259568) can0 421#0200580000006500
(1513194270.259817) can0 42D#0002BA000000F000
(1513194270.260066) can0 42F#7D04002E661302F8
(1513194270.260326) can0 430#450035F708002401
(1513194270.260576) can0 43E#0061100000000000
(1513194270.260817) can0 434#43DC700020FFF3E2
(1513194270.263441) can0 213#FFFF00040001FD40
(1513194270.263942) can0 216#BFAE7F2400000000
(1513194270.264312) can0 109#17A331001D870000
(1513194270.264578) can0 415#1D8CF44608030803
(1513194270.265695) can0 167#72800B10001A1900
(1513194270.265945) can0 202#0452300060991D87
(1513194270.266195) can0 204#C0007D02F3000000
(1513194270.267694) can0 076#BE85EFE3F71D7E00
(1513194270.267947) can0 20A#01B0000000004E20
(1513194270.275945) can0 167#72800B10001A1900
(1513194270.276318) can0 202#0450380060991D88
(1513194270.276568) can0 204#C0007D02F3000000
(1513194270.277937) can0 3CA#EBFC000004000000
(1513194270.283475) can0 213#FFFF00040001FE40
(1513194270.283941) can0 216#DAC8993D00000000
(1513194270.284439) can0 415#1D85F84C08030803
(1513194270.285440) can0 167#72800B10001A1900
(1513194270.285688) can0 171#646C000000000000
(1513194270.285949) can0 202#0450400060991D87
(1513194270.286194) can0 204#C0007D02F3000000
(1513194270.286434) can0 42F#7D04002E661302F8
(1513194270.287704) can0 076#BE85EFF3F61D7E00
(1513194270.287941) can0 20A#01B0000000004E20
(1513194270.288311) can0 315#00000000000008A5
(1513194270.288559) can0 2A4#1024898200007D00
(1513194270.289939) can0 3AA#0022200000000000
(1513194270.290189) can0 3AB#1200000040000000
(1513194270.290576) can0 2AC#3000000000000000
(1513194270.294329) can0 3A7#0E401A045F700000
(1513194270.295953) can0 167#72800B10001A1900
(1513194270.296326) can0 202#0450480060991D86
(1513194270.296947) can0 204#C0007D02F3000000
(1513194270.298450) can0 2A4#21007D00007D0000
(1513194270.302950) can0 076#BE83EFEBF41D7E00
(1513194270.303446) can0 213#FFFF00040001FE40
(1513194270.303946) can0 216#F4E1B35700000000
(1513194270.304576) can0 415#1D83FC4D08030803
(1513194270.305570) can0 167#72800B10001A1900
(1513194270.305959) can0 202#044F500060991D86
(1513194270.306072) can0 204#C0007D02F2000000
(1513194270.306451) can0 261#0000000000000000
(1513194270.306825) can0 43E#0061100000000000
(1513194270.307793) can0 048#000000000700E000
(1513194270.308058) can0 14C#0800000100000000
(1513194270.308302) can0 20A#01B0000000004E20
(1513194270.308551) can0 2A4#227D00007D000221
(1513194270.308792) can0 3CA#EBFC000004000000
(1513194270.309054) can0 412#0000000000000000
(1513194270.309300) can0 433#0000000000900000
(1513194270.309550) can0 470#019BC09900102000
(1513194270.309801) can0 38D#2000000000000000
(1513194270.310059) can0 4A2#0000000000000000
(1513194270.310581) can0 3B8#FFFFFFFF00000000
(1513194270.310948) can0 3E3#0001041380026400
(1513194270.311051) can0 3EC#C604140000100000
(1513194270.311299) can0 40A#C100334641365030
(1513194270.312939) can0 447#2100000004000000
(1513194270.315948) can0 167#72800B10001A1900
(1513194270.316173) can0 171#646C000000000000
(1513194270.316563) can0 202#044F580060991D85
(1513194270.316922) can0 204#C0007D02F2000000
(1513194270.317320) can0 42F#7D04002E661402F7
(1513194270.317929) can0 076#3E83CFEBF41D7E00
(1513194270.318449) can0 2A4#2300021900022C00
(1513194270.320933) can0 22C#000A000000000000
(1513194270.322931) can0 360#6000018000910000
(1513194270.323179) can0 3CA#C1C4000004000000
(1513194270.323430) can0 213#FFFF00040001FE40
(1513194270.323804) can0 361#054D313831380000
(1513194270.324043) can0 216#0EFBCD7100000000
(1513194270.324421) can0 415#1D8AC05508030803
(1513194270.324544) can0 416#5000FE0001000000
(1513194270.325669) can0 167#72800B10001A1900
(1513194270.325936) can0 202#044F600060991D84
(1513194270.326179) can0 204#C0007D02F3000000
(1513194270.327682) can0 20A#01B0000000004E20
(1513194270.328416) can0 2A4#24027D00023B0002
(1513194270.328668) can0 3A6#0E401A045F700000
(1513194270.332678) can0 076#BE83EFE3F41D7F00
(1513194270.333428) can0 3E7#0000000000000000
(1513194270.336190) can0 167#72800B10001A1A00
(1513194270.336690) can0 202#044D680060991D85
(1513194270.336912) can0 204#C0007D02F3000000
(1513194270.338039) can0 3CA#EAC0000000000000
(1513194270.338429) can0 2A4#25030B0000000000
(1513194270.338664) can0 331#C0D305B90A370C04
(1513194270.342938) can0 3D0#024005B988000000
(1513194270.343437) can0 213#FFFF00040001FE40
(1513194270.343936) can0 216#2715E88B00000000
(1513194270.344436) can0 415#1D8DC45108030803
(1513194270.345422) can0 167#72800B10001A1A00
(1513194270.345655) can0 171#646C000000000000
(1513194270.345897) can0 202#044B700060991D86
(1513194270.346166) can0 204#C0007D02F2000000
(1513194270.346408) can0 42F#7D04002E661402F7
(1513194270.347647) can0 076#BE83EFE3F81D7E00
(1513194270.347915) can0 20A#01B0000000004E20
(1513194270.348563) can0 18A#0020180114000000
(1513194270.350405) can0 04C#106FFFC000000000
(1513194270.355686) can0 156#9400000003000000
(1513194270.356052) can0 166#75200000E8330000
(1513194270.356286) can0 167#72800B10001A1A00
(1513194270.356536) can0 178#000001FF0E82CA82
(1513194270.356933) can0 2A1#FFFFFFFF00000000
(1513194270.357051) can0 179#1A1A0000BAAC0AB7
(1513194270.357552) can0 202#0449780060991D87
(1513194270.357910) can0 204#C0007D02F2000000
(1513194270.358172) can0 412#0000000000000000
(1513194270.358401) can0 261#0000000000000000
(1513194270.358651) can0 262#0000000000000000
(1513194270.358924) can0 287#0000000000000000
(1513194270.359183) can0 421#0200580000006500
(1513194270.359401) can0 30A#D700000000000000
(1513194270.359651) can0 3B4#401111FF25250000
(1513194270.359902) can0 346#000000030300C000
(1513194270.360151) can0 42C#B030C480640004A9
(1513194270.360401) can0 348#0000000000000000
(1513194270.360673) can0 42D#0002BA000000F000
(1513194270.360923) can0 430#450035F708002401
(1513194270.361174) can0 43E#0061100000000000
(1513194270.361274) can0 434#43DC700020FFF3E0
(1513194270.363400) can0 213#FFFF00040001FE40
(1513194270.363916) can0 216#412F02A500000000
(1513194270.364154) can0 076#BE84EFE3F91D7D00
(1513194270.364420) can0 077#F80117FF5001C101
(1513194270.364675) can0 415#1D8CC85108030803
(1513194270.365402) can0 167#72800C10001A1B00
(1513194270.365640) can0 202#0458000060991D87
(1513194270.365891) can0 204#C0007D02F1000000
(1513194270.367655) can0 109#178B31001D870000
(1513194270.367889) can0 20A#01B0000000004E20
(1513194270.368012) can0 3CA#EBC4000004000000
(1513194270.369276) can0 3B5#01180110010B0100
(1513194270.375929) can0 167#72800C10001A1B00
(1513194270.376164) can0 171#646C000000000000
(1513194270.376681) can0 202#0456080060991D88
(1513194270.376890) can0 204#C0007D02F1000000
(1513194270.377263) can0 42F#7D04002E661402F7
(1513194270.377923) can0 076#3E84CFE3F81D7D00
(1513194270.383404) can0 213#FFFF00040001FE40
(1513194270.383902) can0 216#5B481BBE00000000
(1513194270.384407) can0 415#1D88CC5408030803
(1513194270.384636) can0 1E6#800CE80700000000
(1513194270.385403) can0 167#72800C10001A1B00
(1513194270.385635) can0 202#0456100060991D87
(1513194270.386057) can0 204#C0007D02F2000000
(1513194270.387772) can0 077#F80017FF5001C101
(1513194270.388035) can0 20A#01B0000000004E20
(1513194270.388283) can0 315#00000000000008A6
(1513194270.388377) can0 45E#30040A0508000000
(1513194270.388652) can0 2A4#1024898200007D00
(1513194270.390527) can0 2AC#3000000000000000
(1513194270.392903) can0 076#BE84EFE3F81D7E00
(1513194270.395902) can0 167#72800C10001A1B00
(1513194270.396273) can0 202#0455180060991D87
(1513194270.396648) can0 168#0000000000000000
(1513194270.396904) can0 204#C0007D02F2000000
(1513194270.398060) can0 3CA#EBC4000004000000
(1513194270.398405) can0 2A4#21007D00007D0000
(1513194270.403433) can0 213#FFFF00040001FF40
(1513194270.403902) can0 216#756435DA00000000
(1513194270.404278) can0 415#1D84D05708030803
(1513194270.405369) can0 167#72800C10001A1B00
(1513194270.405617) can0 171#646C000000000000
(1513194270.405866) can0 202#0455200060991D86
(1513194270.406117) can0 204#C0007D02F2000000
(1513194270.406366) can0 261#0000000000000000
(1513194270.406625) can0 42F#7D04002E661402F7
(1513194270.406999) can0 43E#0061100000000000
(1513194270.408007) can0 048#000000000700E000
(1513194270.408262) can0 076#BE84EFD3F61D7F00
(1513194270.408366) can0 20A#01B0000000004E20
(1513194270.408627) can0 2A4#227D00007D000221
(1513194270.408877) can0 412#0000000000000000
(1513194270.409130) can0 433#0000000000900000
(1513194270.409366) can0 470#019BC09900102000
(1513194270.409617) can0 3B2#4048061210050002
(1513194270.409876) can0 3C3#60C0000000004000
(1513194270.410116) can0 4A2#0000000000000000
(1513194270.415887) can0 167#72800C10001A1B00
(1513194270.416386) can0 202#0454280060991D86
(1513194270.416626) can0 204#C0007D02F2000000
(1513194270.417895) can0 3E2#0000000080000000
(1513194270.418122) can0 3EA#0000000000006000
(1513194270.418373) can0 2A4#2300021900022C00
(1513194270.422646) can0 076#BE85CFD3F61D7F00
(1513194270.423429) can0 213#FFFF00040001FE40
(1513194270.423893) can0 216#8F7D4FF300000000
(1513194270.424677) can0 415#1D88D45208030803
(1513194270.424866) can0 58C#8C00FFFFFFFFFFFF
(1513194270.425130) can0 416#5100FD0001000000
(1513194270.425518) can0 167#72800C10001A1C00
(1513194270.425896) can0 202#0454300060991D85
(1513194270.425984) can0 204#C0007D02F1000000
(1513194270.427893) can0 20A#01B0000000004E20
(1513194270.427984) can0 3CA#EBC4000004000000
(1513194270.428281) can0 2A4#24027D00023B0002
(1513194270.428493) can0 45E#40520022D0000000
(1513194270.436105) can0 167#72800C10001A1C00
(1513194270.436373) can0 171#646C000000000000
(1513194270.436923) can0 202#0453380060991D85
(1513194270.436976) can0 204#C0007D02F1000000
(1513194270.437501) can0 42F#7D04002E661402F7
(1513194270.437749) can0 192#B010000000000000
(1513194270.437994) can0 076#3E85EFDBF21D7F00
(1513194270.438249) can0 215#0000000000000000
(1513194270.438491) can0 2A4#25030B0000000000
(1513194270.438738) can0 222#4000000000000000
(1513194270.438979) can0 227#0000000000000A00
(1513194270.439238) can0 229#0000030000000000
(1513194270.439487) can0 290#0000000000000000
(1513194270.439854) can0 2D0#7704100700000000
(1513194270.440112) can0 2D1#0000000000000000
(1513194270.440381) can0 2D2#0000000000000000
(1513194270.440631) can0 2E0#000F000000000000
(1513194270.440879) can0 2E3#0200000000000000
(1513194270.441113) can0 2EE#000A050040400000
(1513194270.441379) can0 320#00000000000FFE00
(1513194270.441644) can0 321#0000000000000000
(1513194270.441861) can0 34E#0000000000000000
(1513194270.442228) can0 35B#000000FE00000000
(1513194270.442475) can0 362#0000000000000000
(1513194270.442724) can0 3DA#0264000000000000
(1513194270.442975) can0 077#F80117FF5001C101
(1513194270.443224) can0 3F0#0000000000000000
(1513194270.443477) can0 213#FFFF00040001FE40
(1513194270.443724) can0 3F1#0000000000000001
(1513194270.443975) can0 216#AA97690D00000000
(1513194270.444349) can0 415#1D88D85108030803
(1513194270.445363) can0 167#72800C10001A1C00
(1513194270.445598) can0 202#0452400060991D85
(1513194270.445849) can0 204#C0007D02F1000000
(1513194270.447728) can0 20A#01B0000000004E20
(1513194270.447985) can0 18A#0020180114000000
(1513194270.450359) can0 04C#106FFFC000000000
(1513194270.452884) can0 076#BE85EFE3F61D7E00
(1513194270.455595) can0 156#9400000003000000
(1513194270.456104) can0 166#75200000E8330000
(1513194270.456342) can0 167#72800C10001A1C00
(1513194270.456594) can0 178#000001FF0E82CA82
(1513194270.456863) can0 2A1#FFFFFFFF00000000
(1513194270.457113) can0 179#1A1C0000BAB70ABC
(1513194270.457504) can0 202#0451480060991D85
(1513194270.457863) can0 204#C0007D02F1000000
(1513194270.458093) can0 346#000000030300C000
(1513194270.458344) can0 261#0000000000000000
(1513194270.458598) can0 348#0000000000000000
(1513194270.458870) can0 262#0000000000000000
(1513194270.459092) can0 3CA#EBC4000004000000
(1513194270.459342) can0 412#0000000000000000
(1513194270.459593) can0 421#0200580000006500
(1513194270.459841) can0 42D#0002BA000000F000
(1513194270.460091) can0 430#450035F708002401
(1513194270.460341) can0 43E#0061100000000000
(1513194270.460591) can0 434#43DC700020FFF3E1
(1513194270.463353) can0 213#FFFF00040001FE40
(1513194270.463852) can0 216#C4B1832700000000
(1513194270.464339) can0 415#1D88DC5008030803
(1513194270.465348) can0 167#72800C10001A1C00
(1513194270.465608) can0 171#646C000000000000
(1513194270.465840) can0 202#0450500060991D85
(1513194270.466089) can0 204#C0007D02F2000000
(1513194270.466338) can0 42F#7D04002E661402F6
(1513194270.467476) can0 076#BE86EFEBF91D7D00
(1513194270.467712) can0 20A#01B0000000004E20
(1513194270.467962) can0 45E#01132C1F0D0C0300
(1513194270.472737) can0 109#179331001D850000
(1513194270.475855) can0 167#72800D10001A1C00
(1513194270.476230) can0 202#044E580060991D86
(1513194270.476460) can0 204#C0007D02F2000000
(1513194270.482493) can0 076#BE87CFEBF81D7D00
(1513194270.483367) can0 213#FFFF00040001FF40
(1513194270.483865) can0 216#DDCB9C4100000000
(1513194270.484615) can0 415#1D83E05408030803
(1513194270.485358) can0 167#72800D10001A1D00
(1513194270.485579) can0 202#044D600060991D86
(1513194270.485835) can0 204#C0007D02F1000000
(1513194270.487728) can0 20A#01B0000000004E20
(1513194270.487954) can0 3CA#EBC4000004000000
(1513194270.488203) can0 315#00000000000008AA
(1513194270.488453) can0 2A4#1024898200007D00
(1513194270.489990) can0 3AA#0022200000000000
(1513194270.490202) can0 3AB#1200000040000000
(1513194270.490471) can0 2AC#3000000000000000
(1513194270.494238) can0 3A7#0E401A045F700000
(1513194270.495834) can0 167#72800D10001A1D00
(1513194270.496082) can0 171#646C000000000000
(1513194270.496859) can0 202#044D680060991D85
(1513194270.497074) can0 204#C0007D02F1000000
(1513194270.497727) can0 42F#7D04002E661502F6
(1513194270.497946) can0 076#3E87EFF3F81D7E00
(1513194270.498204) can0 2A4#21007D00007D0000
(1513194270.503346) can0 213#FFFF00040001FF40
(1513194270.503857) can0 216#F7E4B75A00000000
(1513194270.504347) can0 415#1D84E45208040804
(1513194270.505322) can0 167#72800D10001A1D00
(1513194270.505570) can0 202#044D700060991D84
(1513194270.505845) can0 204#C0007D02F1000000
(1513194270.506069) can0 261#0000000000000000
(1513194270.506578) can0 43E#0061100000000000
(1513194270.507703) can0 45E#115EFBB24AE65FB0
(1513194270.507941) can0 048#000000000700E000
(1513194270.508202) can0 077#F80217FF5001C101
(1513194270.508443) can0 14C#0800000100000000
(1513194270.508692) can0 20A#01B0000000004E20
(1513194270.508942) can0 2A4#227D00007D000221
(1513194270.509191) can0 412#0000000000000000
(1513194270.509441) can0 433#0000000000900000
(1513194270.509565) can0 40A#C1014B3931485232
(1513194270.509839) can0 470#019BC09900102000
(1513194270.510066) can0 4A2#0000000000000000
(1513194270.512705) can0 076#BE87EFFBF61D7F00
(1513194270.512941) can0 169#0083C00000000000
(1513194270.515856) can0 167#72800D10001A1D00
(1513194270.516362) can0 202#044C780060991D84
(1513194270.516571) can0 204#C0007D02F1000000
(1513194270.517730) can0 3CA#EBC4000004000000
(1513194270.518230) can0 2A4#2300021900022C00
(1513194270.519705) can0 2A0#FFFFFFFF00001E00
(1513194270.523331) can0 213#FFFF00040001FE40
(1513194270.523853) can0 216#11FED17400000000
(1513194270.524314) can0 415#1D83E85208040804
(1513194270.524560) can0 416#5200FC0001000000
(1513194270.525322) can0 167#72800D10001A1D00
(1513194270.525562) can0 171#646C000000000000
(1513194270.525808) can0 202#045B000060991D84
(1513194270.526059) can0 204#C0007D02F2000000
(1513194270.526474) can0 42F#7D04002E661502F6
(1513194270.527586) can0 076#BE87EFF3F41D7E00
(1513194270.527808) can0 077#F80317FF5001C101
(1513194270.528068) can0 20A#01B0000000004E20
(1513194270.528318) can0 2A4#24027D00023B0002
(1513194270.528569) can0 3A6#0E401A045F700000
(1513194270.536057) can0 167#72800D10001A1D00
(1513194270.536577) can0 202#045B080060991D83
(1513194270.536806) can0 204#C0007D02F2000000
(1513194270.538192) can0 2A4#25030B0000000000
(1513194270.539316) can0 5C6#C600FFFFFFFFFFFF
(1513194270.543332) can0 213#FFFF00040001FE40
(1513194270.543834) can0 216#2B18EB8E00000000
(1513194270.544554) can0 415#1D86EC4E08040804
(1513194270.545302) can0 167#72800D10001A1D00
(1513194270.545566) can0 202#045A100060991D83
(1513194270.545805) can0 204#C0007D02F2000000
(1513194270.546949) can0 18A#0020180114000000
(1513194270.547179) can0 3E5#0000000080000000
(1513194270.547671) can0 076#BE87EFD3F81D7D00
(1513194270.547920) can0 077#F80417FF5001C101
(1513194270.548170) can0 20A#01B0000000004E20
(1513194270.548420) can0 3CA#EBC4000004000000
(1513194270.548671) can0 45E#208C19230214A800
(1513194270.550311) can0 04C#106FFFC000000000
(1513194270.555568) can0 156#9400000003000000
(1513194270.556068) can0 166#75200000E8330000
(1513194270.556166) can0 167#72800D10001A1D00
(1513194270.556417) can0 171#646C000000000000
(1513194270.556792) can0 51E#1E04000000000000
(1513194270.556926) can0 2A1#FFFFFFFF00000000
(1513194270.557191) can0 178#000002000E82CA82
(1513194270.557416) can0 179#1A1D0000BAC10AC0
(1513194270.557666) can0 202#0459180060991D83
(1513194270.557924) can0 287#0000000000000000
(1513194270.558191) can0 204#C0007D02F2000000
(1513194270.558447) can0 30A#D700000000000000
(1513194270.558697) can0 261#0000000000000000
(1513194270.558947) can0 262#0000000000000000
(1513194270.559197) can0 331#C0D305B90A370C04
(1513194270.559447) can0 221#8A10080000000000
(1513194270.559697) can0 346#000000030300C000
(1513194270.559915) can0 224#A480200000000000
(1513194270.560166) can0 348#0000000000000000
(1513194270.560415) can0 228#7032EE1092469978
(1513194270.560665) can0 412#0000000000000000
(1513194270.560915) can0 421#0200580000006500
(1513194270.561041) can0 42D#0002BA000000F000
(1513194270.561290) can0 42F#7D04002E661502F6
(1513194270.561540) can0 430#450035F708002401
(1513194270.561790) can0 43E#0061100000000000
(1513194270.562039) can0 434#43DC700020FFF3E3
(1513194270.563303) can0 213#FFFF00040001FE40
(1513194270.563788) can0 216#443205A800000000
(1513194270.564289) can0 415#1D7EF05508050805
(1513194270.564538) can0 077#F80517FF5001C101
(1513194270.565291) can0 167#72800D10001A1D00
(1513194270.565539) can0 202#0459200060991D82
(1513194270.565789) can0 204#C0007D02F2000000
(1513194270.567304) can0 076#BE87EFD3FD1D7C00
(1513194270.567538) can0 20A#01B0000000004E20
(1513194270.575798) can0 167#72800D10001A1D00
(1513194270.576283) can0 202#0459280060991D81
(1513194270.576533) can0 204#C0007D02F2000000
(1513194270.577560) can0 109#179331001D810000
(1513194270.577782) can0 3CA#EBC4000004000000
(1513194270.578683) can0 3D8#0000000080C53030
(1513194270.578907) can0 3CD#0000000000000000
(1513194270.583308) can0 213#FFFF00040001FE40
(1513194270.583805) can0 216#5E4D1FC200000000
(1513194270.584305) can0 415#1D7EF45408050805
(1513194270.585304) can0 167#72800D10001A1D00
(1513194270.585528) can0 171#646C000000000000
(1513194270.585779) can0 202#0459300060991D80
(1513194270.586028) can0 204#C0007D02F1000000
(1513194270.586280) can0 42F#7D04002E661502F6
(1513194270.587555) can0 076#BE87EFEBF81D7C00
(1513194270.587787) can0 20A#01B0000000004E20
(1513194270.588038) can0 45E#715EFB504AE662C0
(1513194270.588276) can0 2A4#1024898200007D00
(1513194270.590413) can0 2AC#3000000000000000
(1513194270.594528) can0 2D5#0304000001924800
(1513194270.594774) can0 223#100001C001000000
(1513194270.595031) can0 2D6#0000000000000000
(1513194270.595273) can0 2D7#0000000000000000
(1513194270.595523) can0 2D8#0814170000000000
(1513194270.595773) can0 167#72800D10001A1E00
(1513194270.596022) can0 2D9#0877773038309060
(1513194270.596271) can0 202#0459380060991D7F
(1513194270.596521) can0 2DC#1F00000000000000
(1513194270.596787) can0 204#C0007D02F1000000
(1513194270.597050) can0 2DE#0300000000000000
(1513194270.597271) can0 2F2#0000000000000000
(1513194270.597520) can0 2F3#0000000000000000
(1513194270.597769) can0 2F5#3008000000000000
(1513194270.598020) can0 2F6#0000000000000000
(1513194270.598281) can0 2A4#21007D00007D0000
(1513194270.598546) can0 2F7#0C02000000000400
(1513194270.598781) can0 2F8#0000000000000000
(1513194270.599036) can0 2F9#5951540000000000
(1513194270.599278) can0 3E8#4000000000000000
(1513194270.599520) can0 4D0#0000000000000000
(1513194270.603293) can0 213#FFFF00040001FF40
(1513194270.603791) can0 216#796738DB00000000
(1513194270.604542) can0 2DA#002A022400000000
(1513194270.604789) can0 2DB#0000000000000000
(1513194270.605028) can0 415#1D80F85108050805
(1513194270.605282) can0 2E6#0000000000000000
(1513194270.605525) can0 167#72800D10001A1E00
(1513194270.605776) can0 202#0458400060991D7F
(1513194270.605957) can0 204#C0007D02F1000000
(1513194270.606150) can0 261#0000000000000000
(1513194270.606790) can0 43E#0061100000000000
(1513194270.607665) can0 048#000000000700E000
(1513194270.607913) can0 076#BE87EFE3F01D7C00
(1513194270.608164) can0 077#F80617FF5001C101
(1513194270.608399) can0 20A#01B0000000004E20
(1513194270.608649) can0 2A4#227D00007D000221
(1513194270.608898) can0 3CA#EBC4000004000000
(1513194270.609163) can0 412#0000000000000000
(1513194270.609276) can0 42C#B030C480640004A8
(1513194270.609523) can0 433#0000000000900000
(1513194270.609774) can0 470#019BC09900102000
(1513194270.610023) can0 4A2#0000000000000000
(1513194270.616027) can0 167#72800D10001A1E00
(1513194270.616261) can0 171#646C000000000000
(1513194270.616777) can0 202#0457480060991D7F
(1513194270.617012) can0 204#C0007D02F1000000
(1513194270.617539) can0 42F#7D04002E661502F6
(1513194270.618011) can0 2A4#2300021900022C00
(1513194270.623293) can0 213#FFFF00040001FE40
(1513194270.623791) can0 216#938152F500000000
(1513194270.624292) can0 415#1D7FFC5108050805
(1513194270.624511) can0 416#5300FB0001000000
(1513194270.625535) can0 167#72800D10001A1E00
(1513194270.625762) can0 202#0457500060991D7E
(1513194270.626007) can0 204#C0007D02F1000000
(1513194270.627519) can0 076#BE87EFF3F41D7B00
(1513194270.627761) can0 077#F80717FF5001C101
(1513194270.627885) can0 20A#01B0000000004E20
(1513194270.628144) can0 2A4#24027D00023B0002
(1513194270.628385) can0 45E#815EFB374AE65EA0
(1513194270.636281) can0 167#72800E10001A1E00
(1513194270.636786) can0 202#0456580060991D7E
(1513194270.637005) can0 204#C0007D02F2000000
(1513194270.637655) can0 3CA#EBC4000004000000
(1513194270.637895) can0 290#0000000000000000
(1513194270.638131) can0 2A4#25030B0000000000
(1513194270.643265) can0 213#FFFF00040001FE40
(1513194270.643751) can0 216#AD9A6C0F00000000
(1513194270.644263) can0 415#1D81C05E08050805
(1513194270.645392) can0 167#72800E10001A1E00
(1513194270.645627) can0 171#646C000000000000
(1513194270.646151) can0 202#0455600060991D7E
(1513194270.646380) can0 18A#0020180114000000
(1513194270.646622) can0 204#C0007D02F2000000
(1513194270.646872) can0 42F#7D04002E661502F5
(1513194270.647526) can0 076#BE87F003F81D7A00
(1513194270.647749) can0 077#F80417FF5001C101
(1513194270.648020) can0 20A#01B0000000004E20
(1513194270.650382) can0 04C#106FFFC000000000
(1513194270.655772) can0 156#9400000003000000
(1513194270.656287) can0 166#75200000E8330000
(1513194270.656495) can0 167#72800E10001A1F00
(1513194270.656887) can0 2A1#FFFFFFFF00000000
(1513194270.656994) can0 178#000001FF0E82CA82
(1513194270.657246) can0 179#1A1F0000BACC0AC5
(1513194270.657625) can0 412#0000000000000000
(1513194270.657745) can0 202#0454680060991D7E
(1513194270.657996) can0 204#C0007D02F1000000
(1513194270.658253) can0 346#000000030300C000
(1513194270.658504) can0 261#0000000000000000
(1513194270.658752) can0 262#0000000000000000
(1513194270.659001) can0 348#0000000000000000
(1513194270.659243) can0 421#0200580000006500
(1513194270.659493) can0 42D#0002BA000000F000
(1513194270.659753) can0 430#450035F708002401
(1513194270.660002) can0 43E#0061100000000000
(1513194270.660242) can0 434#43DC700020FFF3E3
(1513194270.663264) can0 213#FFFF00040001FE40
(1513194270.663764) can0 216#C7B4862A00000000
(1513194270.664021) can0 077#D80317FF5001C101
(1513194270.664518) can0 415#1D7AC46408060806
(1513194270.665515) can0 167#72800E10001A1F00
(1513194270.665770) can0 202#0453700060991D7E
(1513194270.665988) can0 204#C0007D02F1000000
(1513194270.667262) can0 076#BE87F003F91D7900
(1513194270.667518) can0 20A#01B0000000004E20
(1513194270.667768) can0 3CA#EBC4000004000000
(1513194270.668020) can0 188#4000000000000000
(1513194270.676012) can0 167#72800E10001A1F00
(1513194270.676231) can0 171#646C000000000000
(1513194270.676733) can0 202#0453780060991D7D
(1513194270.676986) can0 204#C0007D02F0000000
(1513194270.677483) can0 42F#7D04002E661502F5
(1513194270.677983) can0 5E2#E200FFFFFFFFFFFF
(1513194270.682256) can0 109#178331001D7D0000
(1513194270.683270) can0 213#FFFF00040001FE40
(1513194270.683747) can0 216#E0CEA14400000000
(1513194270.684247) can0 415#1D7AC86308060806
(1513194270.685393) can0 167#72800E10001A2000
(1513194270.685621) can0 202#0463000060991D7C
(1513194270.686121) can0 204#C0007D02F0000000
(1513194270.687370) can0 076#BE85EFF3F61D7900
(1513194270.687620) can0 20A#01B0000000004E20
(1513194270.687863) can0 315#00000000000008AE
(1513194270.688112) can0 2A4#1024898200007D00
(1513194270.689988) can0 3AA#0022200000000000
(1513194270.690237) can0 3AB#1200000040000000
(1513194270.690486) can0 2AC#3000000000000000
(1513194270.694252) can0 3A7#0E401A045F700000
(1513194270.696014) can0 167#72800F10001A2000
(1513194270.696765) can0 202#0462080060991D7C
(1513194270.696973) can0 204#C0007D02F1000000
(1513194270.697617) can0 3CA#EBC4000004000000
(1513194270.698015) can0 2A4#21007D00007D0000
(1513194270.703249) can0 213#FFFF00040001FE40
(1513194270.703765) can0 216#FAE8BB5E00000000
(1513194270.704257) can0 415#1D7ECC5E08060806
(1513194270.705359) can0 167#72800F10001A2000
(1513194270.705752) can0 171#646C000000000000
(1513194270.706119) can0 202#0461100060991D7C
(1513194270.706343) can0 204#C0007D02F1000000
(1513194270.706746) can0 261#0000000000000000
(1513194270.706853) can0 42F#7D04002E661502F5
(1513194270.707369) can0 43E#0061100000000000
(1513194270.707754) can0 048#000000000700E000
(1513194270.707969) can0 076#BE83EFE3F41D7A00
(1513194270.708091) can0 077#F80417FF5001C101
(1513194270.708391) can0 14C#0800000100000000
(1513194270.708754) can0 20A#01B0000000004E20
(1513194270.708863) can0 2A4#227D00007D000221
(1513194270.709094) can0 412#0000000000000000
(1513194270.709344) can0 433#0000000000900000
(1513194270.709718) can0 470#019BC09900102000
(1513194270.709839) can0 40A#C1023130373639FF
(1513194270.710091) can0 4A2#0000000000000000
(1513194270.715977) can0 167#72800F10001A2100
(1513194270.716463) can0 202#0460180060991D7C
(1513194270.716712) can0 204#C0007D02F0000000
(1513194270.717865) can0 2A4#2300021900022C00
(1513194270.723114) can0 213#FFFF00040001FE40
(1513194270.723589) can0 216#1401D47700000000
(1513194270.724349) can0 415#1D7ED05D08050805
(1513194270.724585) can0 416#5400FA0001000000
(1513194270.725609) can0 167#72800F10001A2100
(1513194270.725844) can0 202#045F200060991D7C
(1513194270.726087) can0 204#C0007D02F0000000
(1513194270.727221) can0 076#BE83EFEBF41D7900
(1513194270.727456) can0 20A#01B0000000004E20
(1513194270.727708) can0 3CA#EBC4000004000000
(1513194270.727956) can0 2A4#24027D00023B0002
(1513194270.728978) can0 3A6#0E401A045F700000
(1513194270.736240) can0 167#72800F10001A2100
(1513194270.736457) can0 171#646C000000000000
(1513194270.737023) can0 202#045E280060991D7C
(1513194270.737221) can0 204#C0007D02F0000000
(1513194270.737868) can0 2A4#25030B0000000000
(1513194270.738082) can0 42F#7D04002E661602F5
(1513194270.743364) can0 213#FFFF00040001FD40
(1513194270.743702) can0 216#2E1BEE9100000000
(1513194270.744242) can0 415#1D81D45908050805
(1513194270.745495) can0 18A#0020180114000000
(1513194270.745713) can0 167#72800F10001A2200
(1513194270.745839) can0 202#045D300060991D7C
(1513194270.746076) can0 204#C0007D02F0000000
(1513194270.747239) can0 076#BE83EFD3FA1D7600
(1513194270.747455) can0 20A#01B0000000004E20
(1513194270.750585) can0 04C#106FFFC000000000
(1513194270.755739) can0 156#9400000003000000
(1513194270.756254) can0 166#75200000E8330000
(1513194270.756451) can0 167#72801010001A2200
(1513194270.756712) can0 178#000001FF0E82CA82
(1513194270.756961) can0 2A1#FFFFFFFF00000000
(1513194270.757211) can0 179#1A220000BAD60ACA
(1513194270.757610) can0 3CA#EBC4000004000000
(1513194270.757822) can0 202#045B380060991D7D
(1513194270.758078) can0 204#C0007D02F0000000
(1513194270.758327) can0 287#0000000000000000
(1513194270.758578) can0 261#0000000000000000
(1513194270.758817) can0 262#0000000000000000
(1513194270.759068) can0 30A#D700000000000000
(1513194270.759320) can0 412#0000000000000000
(1513194270.759441) can0 346#000000030300C000
(1513194270.759692) can0 421#0200580000006500
(1513194270.759950) can0 348#0000000000000000
(1513194270.760201) can0 42D#0002BA000000F000
(1513194270.760451) can0 430#450035F708002401
(1513194270.760701) can0 43E#0061100000000000
(1513194270.760950) can0 434#43DC700020FFF3E1
(1513194270.763214) can0 213#FFFF00040001FE40
(1513194270.763714) can0 216#483508AB00000000
(1513194270.763949) can0 077#F80517FF5001C101
(1513194270.764198) can0 415#1D7AD85F08040804
(1513194270.765464) can0 167#72801010001A2200
(1513194270.765699) can0 171#646C000000000000
(1513194270.765948) can0 202#045B400060991D7C
(1513194270.766198) can0 204#C0007D02F0000000
(1513194270.766447) can0 42F#7D04002E661602F5
(1513194270.767212) can0 076#BE83EFE3FB1D7600
(1513194270.767447) can0 20A#01B0000000004E20
(1513194270.775974) can0 167#72801010001A2200
(1513194270.776457) can0 202#045B480060991D7B
(1513194270.776693) can0 204#C0007D02EF000000
(1513194270.783192) can0 213#FFFF00040001FE40
(1513194270.783706) can0 216#635022C500000000
(1513194270.784703) can0 415#1D77DC6108040804
(1513194270.785470) can0 167#72801010001A2300
(1513194270.785680) can0 202#045A500060991D7B
(1513194270.786037) can0 204#C0007D02EF000000
(1513194270.787319) can0 076#BE83EFEBF81D7600
(1513194270.787557) can0 077#F80617FF5001C101
(1513194270.787803) can0 109#177B31001D7B0000
(1513194270.788052) can0 20A#01B0000000004E20
(1513194270.788312) can0 315#00000000000008B2
(1513194270.788562) can0 3CA#EBC4000004000000
(1513194270.788813) can0 2A4#1024898200007D00
(1513194270.790326) can0 2AC#3000000000000000
(1513194270.795950) can0 167#72801010001A2300
(1513194270.796181) can0 171#646C000000000000
(1513194270.796962) can0 202#045A580060991D7A
(1513194270.797184) can0 204#C0007D02EF000000
(1513194270.797797) can0 2A4#21007D00007D0000
(1513194270.798047) can0 42F#7D04002E661602F5
(1513194270.803199) can0 213#FFFF00040001FE40
(1513194270.803673) can0 216#7D6A3CDE00000000
(1513194270.804209) can0 415#1D7EE05908040804
(1513194270.805445) can0 167#72801010001A2300
(1513194270.805678) can0 202#0459600060991D7A
(1513194270.805977) can0 204#C0007D02EF000000
(1513194270.806168) can0 261#0000000000000000
(1513194270.806687) can0 43E#0061100000000000
(1513194270.807430) can0 048#000000000700E000
(1513194270.807691) can0 076#BE83EFF3F61D7700
(1513194270.807793) can0 20A#01B0000000004E20
(1513194270.808066) can0 2A4#227D00007D000221
(1513194270.808315) can0 412#0000000000000000
(1513194270.808670) can0 433#0000000000900000
(1513194270.808792) can0 470#019BC09900102000
(1513194270.809041) can0 4A2#0000000000000000
(1513194270.809961) can0 3B8#FFFFFFFF00000000
(1513194270.815933) can0 167#72801110001A2300
(1513194270.816413) can0 202#0458680060991D7A
(1513194270.816663) can0 204#C0007D02EE000000
(1513194270.817547) can0 3CA#EBC4000004000000
(1513194270.817797) can0 2A4#2300021900022C00
(1513194270.823061) can0 213#FFFF00040001FE40
(1513194270.823554) can0 216#968455F800000000
(1513194270.824054) can0 415#1D7FE45708030803
(1513194270.824699) can0 416#5500F90001000000
(1513194270.825559) can0 167#72801110001A2300
(1513194270.825794) can0 171#646C000000000000
(1513194270.825954) can0 202#0456700060991D7B
(1513194270.826167) can0 204#C0007D02EE000000
(1513194270.826418) can0 42F#7D04002E661602F4
(1513194270.827307) can0 076#BE83EFFBF61D7600
(1513194270.827576) can0 20A#01B0000000004E20
(1513194270.827792) can0 2A4#24027D00023B0002
(1513194270.836195) can0 167#72801110001A2300
(1513194270.836697) can0 202#0455780060991D7B
(1513194270.836929) can0 204#C0007D02EE000000
(1513194270.837559) can0 290#0000000000000000
(1513194270.837789) can0 2A4#25030B0000000000
(1513194270.843161) can0 213#FFFF00040001FE40
(1513194270.843661) can0 216#B09D6F1200000000
(1513194270.844411) can0 18A#0020180114000000
(1513194270.845161) can0 415#1D81E85408030803
(1513194270.845406) can0 167#72801110001A2400
(1513194270.845661) can0 202#0464000060991D7B
(1513194270.845774) can0 204#C0007D02EE000000
(1513194270.847153) can0 076#BE83F00BFA1D7400
(1513194270.847403) can0 20A#01B0000000004E20
(1513194270.847658) can0 3CA#EBC4000004000000
(1513194270.850539) can0 04C#106FFFC000000000
(1513194270.855810) can0 156#9400000003000000
(1513194270.856152) can0 166#75200000E8330000
(1513194270.856402) can0 167#72801110001A2400
(1513194270.856651) can0 171#646C000000000000
(1513194270.856899) can0 2A1#FFFFFFFF00000000
(1513194270.857152) can0 178#000001FF0E82CA82
(1513194270.857399) can0 412#0000000000000000
(1513194270.857645) can0 179#1A240000BAE10ACF
(1513194270.857896) can0 346#000000030300C000
(1513194270.858144) can0 202#0462080060991D7C
(1513194270.858404) can0 204#C0007D02EF000000
(1513194270.858654) can0 348#0000000000000000
(1513194270.858904) can0 261#0000000000000000
(1513194270.859169) can0 262#0000000000000000
(1513194270.859404) can0 421#0200580000006500
(1513194270.859673) can0 42C#B430C480640004A8
(1513194270.859895) can0 42D#0002BA000000F000
(1513194270.860144) can0 42F#7D04002E661702F4
(1513194270.860393) can0 430#450035F708002401
(1513194270.860670) can0 43E#0061100000000000
(1513194270.860770) can0 434#43DC700020FFF3E1
(1513194270.863294) can0 213#FFFF00040001FE40
(1513194270.863668) can0 077#F80717FF5001C101
(1513194270.864175) can0 216#CAB7892C00000000
(1513194270.864668) can0 415#1D7EEC5608030803
(1513194270.865416) can0 167#72801110001A2400
(1513194270.865651) can0 202#0461100060991D7C
(1513194270.865997) can0 204#C0007D02EF000000
(1513194270.866918) can0 076#BE83F003F91D7500
(1513194270.867150) can0 20A#01B0000000004E20
(1513194270.869167) can0 3B5#01180110010B0100
(1513194270.875921) can0 167#72801110001A2400
(1513194270.876401) can0 202#0460180060991D7C
(1513194270.876662) can0 204#C0007D02EF000000
(1513194270.877397) can0 3CA#EBC4000004000000
(1513194270.883204) can0 213#FFFF00040001FE40
(1513194270.883666) can0 216#E4D1A44600000000
(1513194270.884699) can0 415#1D7CF05708020802
(1513194270.885416) can0 167#72801110001A2400
(1513194270.885659) can0 171#646C000000000000
(1513194270.886134) can0 202#045F200060991D7C
(1513194270.886137) can0 204#C0007D02EF000000
(1513194270.886409) can0 42F#7D04002E661702F4
(1513194270.887323) can0 076#BE83EFE3F81D7500
(1513194270.887526) can0 077#F80617FF5001C101
(1513194270.887775) can0 20A#01B0000000004E20
(1513194270.887899) can0 2A4#1024898200007D00
(1513194270.889779) can0 3AA#0022200000000000
(1513194270.890011) can0 3AB#1200000040000000
(1513194270.890293) can0 2AC#3000000000000000
(1513194270.892003) can0 109#177B31001D7C0000
(1513194270.894325) can0 3A7#0E401A045F700000
(1513194270.895913) can0 167#72801110001A2500
(1513194270.896645) can0 202#045E280060991D7C
(1513194270.896879) can0 204#C0007D02EE000000
(1513194270.897625) can0 2A4#21007D00007D0000
(1513194270.903134) can0 213#FFFF00040001FF40
(1513194270.904141) can0 216#FDEBBE6100000000
(1513194270.904892) can0 415#1D7DF45508020802
(1513194270.905391) can0 167#72801110001A2500
(1513194270.905620) can0 202#045D300060991D7C
(1513194270.905910) can0 204#C0007D02EE000000
(1513194270.906131) can0 261#0000000000000000
(1513194270.906771) can0 43E#0061100000000000
(1513194270.907380) can0 048#000000000700E000
(1513194270.907617) can0 076#BE83EFE3F81D7600
(1513194270.907871) can0 077#F80717FF5001C101
(1513194270.908121) can0 14C#0800000100000000
(1513194270.908243) can0 20A#01B0000000004E20
(1513194270.908667) can0 2A4#227D00007D000221
(1513194270.908753) can0 3CA#EBC4000004000000
(1513194270.908995) can0 412#0000000000000000
(1513194270.909242) can0 433#0000000000900000
(1513194270.909621) can0 470#019BC09900102000
(1513194270.909742) can0 3B2#4048061210050002
(1513194270.909993) can0 40A#C104014107F670C1
(1513194270.910241) can0 4A2#0000000000000000
(1513194270.915879) can0 167#72801110001A2500
(1513194270.916115) can0 171#646C000000000000
(1513194270.916641) can0 202#045D380060991D7B
(1513194270.916862) can0 204#C0007D02EE000000
(1513194270.917398) can0 42F#7D04002E661702F4
(1513194270.917612) can0 463#98B0882818B03800
(1513194270.917897) can0 2A4#2300021900022C00
(1513194270.918115) can0 466#98B0882818B03800
(1513194270.923123) can0 213#FFFF00040001FE40
(1513194270.924151) can0 216#1705D87B00000000
(1513194270.924624) can0 415#1D7BF85608020802
(1513194270.924859) can0 416#5600F80001000000
(1513194270.925511) can0 167#72801210001A2500
(1513194270.925733) can0 202#045C400060991D7B
(1513194270.925997) can0 204#C0007D02EE000000
(1513194270.926762) can0 3A6#0E401A045F700000
(1513194270.927152) can0 076#BE83EFF3F81D7500
(1513194270.927357) can0 077#F80817FF5001C101
(1513194270.927611) can0 20A#01B0000000004E20
(1513194270.927870) can0 2A4#24027D00023B0002
(1513194270.936143) can0 167#72801210001A2500
(1513194270.936628) can0 202#045B480060991D7B
(1513194270.936856) can0 204#C0007D02ED000000
(1513194270.937259) can0 3CA#EBC4000004000000
(1513194270.937606) can0 2A4#25030B0000000000
(1513194270.943677) can0 18A#0020180114000000
(1513194270.943865) can0 213#FFFF00040001FE40
(1513194270.944353) can0 216#321EF19400000000
(1513194270.944851) can0 415#1D80FC5008020802
(1513194270.945385) can0 167#72801210001A2500
(1513194270.945614) can0 171#646C000000000000
(1513194270.945850) can0 202#045A500060991D7B
(1513194270.946099) can0 204#C0007D02ED000000
(1513194270.946637) can0 42F#7D04002E661702F4
(1513194270.947253) can0 076#BE83EFFBF81D7400
(1513194270.947474) can0 20A#01B0000000004E20
(1513194270.949626) can0 3E1#8000010701800000
(1513194270.950259) can0 04C#106FFFC000000000
(1513194270.955629) can0 156#9400000003000000
(1513194270.956146) can0 166#75200000E8330000
(1513194270.956372) can0 167#72801210001A2600
(1513194270.956598) can0 178#000001FF0E82CA82
(1513194270.956847) can0 2A1#FFFFFFFF00000000
(1513194270.957095) can0 179#1A260000BAEB0AD4
(1513194270.957344) can0 412#0000000000000000
(1513194270.957593) can0 287#0000000000000000
(1513194270.957843) can0 202#0459580060991D7B
(1513194270.958095) can0 204#C0007D02EE000000
(1513194270.958345) can0 30A#D700000000000000
(1513194270.958593) can0 261#0000000000000000
(1513194270.958844) can0 262#0000000000000000
(1513194270.959093) can0 346#000000030300C000
(1513194270.959344) can0 421#0200580000006500
(1513194270.959594) can0 348#0000000000000000
(1513194270.959843) can0 42D#0002BA000000F000
(1513194270.960094) can0 430#450035F708002401
(1513194270.960344) can0 43E#0061100000000000
(1513194270.960594) can0 434#43DC700020FFF3DF
(1513194270.963592) can0 213#FFFF00040001FE40
(1513194270.964091) can0 216#4C3A0BAE00000000
(1513194270.964853) can0 415#1D7FC06008020802
(1513194270.965352) can0 167#72801210001A2600
(1513194270.965588) can0 202#0457600060991D7C
(1513194270.965839) can0 204#C0007D02EE000000
(1513194270.966851) can0 076#BE83F003F91D7400
(1513194270.967089) can0 20A#01B0000000004E20
(1513194270.967339) can0 3CA#EBC4000004000000
(1513194270.975864) can0 167#72801210001A2600
(1513194270.976085) can0 171#646C000000000000
(1513194270.976735) can0 202#0456680060991D7C
(1513194270.976843) can0 204#C0007D02ED000000
(1513194270.977363) can0 42F#7D04002E661702F3
(1513194270.983621) can0 213#FFFF00040001FF40
(1513194270.984123) can0 216#665325C800000000
(1513194270.984625) can0 415#1D81C45D08020802
(1513194270.985369) can0 167#72801210001A2600
(1513194270.985582) can0 202#0455700060991D7C
(1513194270.985829) can0 204#C0007D02ED000000
(1513194270.986993) can0 076#BE83F00BF81D7500
(1513194270.987211) can0 077#F80517FF5001C101
(1513194270.987467) can0 20A#01B0000000004E20
(1513194270.987703) can0 315#00000000000008BA
(1513194270.987967) can0 2A4#1024898200007D00
(1513194270.990219) can0 2AC#3000000000000000
(1513194270.995838) can0 167#72801210001A2600
(1513194270.996598) can0 202#0454780060991D7C
(1513194270.996825) can0 204#C0007D02EE000000
(1513194270.997080) can0 109#176B31001D7C0000
(1513194270.997330) can0 3CA#EBC4000004000000
(1513194270.997576) can0 2A4#21007D00007D0000
(1513194271.003601) can0 213#FFFF00040001FF40
(1513194271.004114) can0 216#806D3FE200000000
(1513194271.004619) can0 415#1D80C85D08020802
(1513194271.005334) can0 167#72801210001A2600
(1513194271.005568) can0 171#646C000000000000
(1513194271.005819) can0 202#0462000060991D7D
(1513194271.006076) can0 204#C0007D02EE000000
(1513194271.006319) can0 261#0000000000000000
(1513194271.006569) can0 42F#7D04002E661702F3
(1513194271.007073) can0 43E#0061100000000000
(1513194271.007321) can0 048#000000000700E000
(1513194271.007569) can0 076#BE83F013F81D7600
(1513194271.007818) can0 077#F80317FF5001C101
(1513194271.008068) can0 20A#01B0000000004E20
(1513194271.008318) can0 2A4#227D00007D000221
(1513194271.008578) can0 412#0000000000000000
(1513194271.008828) can0 433#0000000000900000
(1513194271.009078) can0 470#019BC09900102000
(1513194271.009328) can0 4A2#0000000000000000
(1513194271.015956) can0 167#72801210001A2600
(1513194271.016341) can0 202#0461080060991D7D
(1513194271.016690) can0 204#C0007D02ED000000
(1513194271.017601) can0 2A4#2300021900022C00
(1513194271.018452) can0 084#1100015B2C240E00
(1513194271.023463) can0 213#FFFF00040001FF40
(1513194271.023984) can0 216#998758FB00000000
(1513194271.024594) can0 415#1D84CC5808020802
(1513194271.024821) can0 416#5700F70001000000
(1513194271.025447) can0 167#72801210001A2700
(1513194271.025563) can0 202#0460100060991D7D
(1513194271.025811) can0 204#C0007D02ED000000
(1513194271.026944) can0 076#BE83EFFBF81D7500
(1513194271.027196) can0 20A#01B0000000004E20
(1513194271.027444) can0 3CA#EBC4000004000000
(1513194271.027683) can0 2A4#24027D00023B0002
(1513194271.036116) can0 167#72801210001A2700
(1513194271.036317) can0 171#646C000000000000
(1513194271.036832) can0 202#045E180060991D7E
(1513194271.037066) can0 204#C0007D02ED000000
(1513194271.037452) can0 290#0000000000000000
(1513194271.037701) can0 2A4#25030B0000000000
(1513194271.037927) can0 42F#7D04002E661702F3
(1513194271.043583) can0 18A#0020180114000000
(1513194271.043813) can0 213#FFFF00040001FF40
(1513194271.044362) can0 216#B3A1721500000000
(1513194271.044824) can0 415#1D85D05608020802
(1513194271.045324) can0 167#72801310001A2700
(1513194271.045568) can0 202#045C200060991D7F
(1513194271.045817) can0 204#C0007D02ED000000
(1513194271.046951) can0 076#BE83EFFBFC1D7500
(1513194271.047199) can0 20A#01B0000000004E20
(1513194271.050078) can0 04C#106FFFC000000000
(1513194271.055747) can0 156#9400000003000000
(1513194271.056188) can0 166#75200000E8330000
(1513194271.056298) can0 167#72801310001A2700
(1513194271.056554) can0 081#0000000000000000
(1513194271.056805) can0 178#000001FF0E82CA82
(1513194271.057046) can0 179#1A270000BAF60AD8
(1513194271.057303) can0 346#000000030300C000
(1513194271.057557) can0 2A1#FFFFFFFF00000000
(1513194271.057793) can0 348#0000000000000000
(1513194271.058044) can0 202#045B280060991D7F
(1513194271.058294) can0 3CA#EBC4000004000000
(1513194271.058544) can0 204#C0007D02ED000000
(1513194271.058795) can0 261#0000000000000000
(1513194271.059042) can0 262#0000000000000000
(1513194271.059293) can0 3E6#0001040880000000
(1513194271.059543) can0 412#0000000000000000
(1513194271.059796) can0 421#0200580000006500
(1513194271.060044) can0 42D#0002BA000000F000
(1513194271.060293) can0 430#450035F708002401
(1513194271.060548) can0 43E#0061100000000000
(1513194271.060792) can0 434#43DC700020FFF3E1
(1513194271.063303) can0 077#F80217FF5001C101
(1513194271.063542) can0 213#FFFF00040001FF40
(1513194271.063818) can0 216#CDBA8C2F00000000
(1513194271.064291) can0 415#1D82D45808020802
(1513194271.065316) can0 167#72801310001A2700
(1513194271.065555) can0 171#646C000000000000
(1513194271.065798) can0 202#0459300060991D80
(1513194271.066038) can0 204#C0007D02ED000000
(1513194271.066301) can0 42F#7D04002E661802F3
(1513194271.066814) can0 076#BE83EFFBFD1D7600
(1513194271.067061) can0 20A#01B0000000004E20
(1513194271.071574) can0 3DE#0000000080000000
(1513194271.075855) can0 167#72801310001A2700
(1513194271.076309) can0 202#0458380060991D80
(1513194271.076555) can0 204#C0007D02ED000000
(1513194271.083228) can0 213#FFFF00040001FF40
(1513194271.083680) can0 216#E7D4A74900000000
(1513194271.084477) can0 415#1D7ED85B08020802
(1513194271.085477) can0 167#72801310001A2800
(1513194271.085679) can0 202#0457400060991D80
(1513194271.086074) can0 204#C0007D02ED000000
(1513194271.086926) can0 076#BE80EFE3F81D7700
(1513194271.087161) can0 077#F80017FF5001C101
(1513194271.087410) can0 20A#01B0000000004E20
(1513194271.087665) can0 313#0009000000170000
(1513194271.087910) can0 3CA#EBC4000004000000
(1513194271.088156) can0 2A4#1024898200007D00
(1513194271.089656) can0 3AA#0022200000000000
(1513194271.089996) can0 3AB#1200000040000000
(1513194271.090284) can0 2AC#3000000000000000
(1513194271.094192) can0 3A7#0E401A045F700000
(1513194271.095804) can0 167#72801310001A2800
(1513194271.096316) can0 171#646C000000000000
(1513194271.096802) can0 202#0457480060991D7F
(1513194271.097317) can0 204#C0007D02ED000000
(1513194271.097534) can0 2A4#21007D00007D0000
(1513194271.098064) can0 42F#7D04002E661802F3
(1513194271.101849) can0 109#176B31001D7F0000
(1513194271.103347) can0 213#FFFF00040001FF40
(1513194271.103797) can0 216#01EEC16200000000
(1513194271.104316) can0 415#1D83DC5508020802
(1513194271.105346) can0 167#72801310001A2800
(1513194271.105546) can0 202#0455500060991D80
(1513194271.105795) can0 204#C0007D02ED000000
(1513194271.106029) can0 59E#9E00FFFFFFFFFFFF
(1513194271.106279) can0 261#0000000000000000
(1513194271.106529) can0 43E#0061100000000000
(1513194271.107170) can0 048#000000000700E000
(1513194271.107405) can0 076#BE81EFF3F61D7700
(1513194271.107529) can0 077#F80317FF5001C101
(1513194271.107778) can0 108#0004040040009E64
(1513194271.108043) can0 14C#0800000100000000
(1513194271.108281) can0 20A#01B0000000004E20
(1513194271.108529) can0 276#0000000000000000
(1513194271.108778) can0 277#0800000002828888
(1513194271.109028) can0 279#0050003C00960000
(1513194271.109278) can0 2A4#227D00007D000221
(1513194271.109528) can0 303#000008040E052000
(1513194271.109799) can0 38A#4300200208470000
(1513194271.110028) can0 3B3#4040001291050100
(1513194271.110288) can0 3D0#034F05B988000000
(1513194271.110542) can0 40A#C110409060250000
(1513194271.110792) can0 412#0000000000000000
(1513194271.111041) can0 42C#B030C480640004A8
(1513194271.111150) can0 431#0000208008400086
(1513194271.111542) can0 432#2680000000040000
(1513194271.111650) can0 433#0000000000900000
(1513194271.112040) can0 435#0000000000000000
(1513194271.112149) can0 46A#0004208800000000
(1513194271.112541) can0 46B#D1A045F820008000
(1513194271.112648) can0 470#019BC09900102000
(1513194271.112921) can0 4A2#0000000000000000
(1513194271.115789) can0 167#72801310001A2800
(1513194271.116290) can0 202#0454580060991D80
(1513194271.116655) can0 204#C0007D02ED000000
(1513194271.117147) can0 3CA#EBC4000004000000
(1513194271.117392) can0 2A4#2300021900022C00
(1513194271.123167) can0 213#FFFF00040001FF40
(1513194271.123537) can0 216#1C08DB7C00000000
(1513194271.124012) can0 415#1D84E05308010801
(1513194271.124264) can0 416#5800F60001000000
(1513194271.125411) can0 167#72801310001A2800
(1513194271.125636) can0 171#646C000000000000
(1513194271.125887) can0 202#0453600060991D80
(1513194271.126143) can0 204#C0007D02ED000000
(1513194271.126412) can0 42F#7D04002E661802F2
(1513194271.127024) can0 076#BE83EFE3F41D7600
(1513194271.127260) can0 077#F80517FF5001C101
(1513194271.127510) can0 20A#01B0000000004E20
(1513194271.127636) can0 2A4#24027D00023B0002
(1513194271.128259) can0 3A6#0E401A045F700000
(1513194271.136159) can0 167#72801310001A2800
(1513194271.136540) can0 202#0452680060991D80
(1513194271.136759) can0 204#C0007D02ED000000
(1513194271.137418) can0 591#9100FFFFFFFFFFFF
(1513194271.137633) can0 2A4#25030B0000000000
(1513194271.141696) can0 18A#0020180114000000
(1513194271.141898) can0 307#0100000000000000
(1513194271.143195) can0 213#FFFF00040001FF40
(1513194271.143636) can0 216#3623F59600000000
(1513194271.144283) can0 415#1D82E45408010801
(1513194271.145278) can0 167#72801310001A2800
(1513194271.145505) can0 202#0450700060991D81
(1513194271.145899) can0 204#C0007D02ED000000
(1513194271.146790) can0 076#BE83EFF3F81D7500
(1513194271.147024) can0 077#F80417FF5001C101
(1513194271.147274) can0 20A#01B0000000004E20
(1513194271.147523) can0 3CA#EBC4000004000000
(1513194271.150506) can0 04C#106FFFC000000000
(1513194271.155700) can0 156#9400000003000000
(1513194271.156022) can0 166#75200000E8330000
(1513194271.156248) can0 167#72801310001A2800
(1513194271.156495) can0 171#646C000000000000
(1513194271.156746) can0 2A1#FFFFFFFF00000000
(1513194271.156995) can0 412#0000000000000000
(1513194271.157246) can0 178#000002000E82CA82
(1513194271.157498) can0 18B#0000001E00000000
(1513194271.157748) can0 179#1A280000BA000ADD
(1513194271.157995) can0 19A#0000000240000000
(1513194271.158242) can0 202#0450780060991D80
(1513194271.158492) can0 204#C0007D02ED000000
(1513194271.158743) can0 220#1001000000000000
(1513194271.159003) can0 261#0000000000000000
(1513194271.159253) can0 225#2041800000000000
(1513194271.159504) can0 262#0000000000000000
(1513194271.159754) can0 287#0000000000000000
(1513194271.160003) can0 421#0200580000006500
(1513194271.160251) can0 2F4#1001000000000000
(1513194271.160501) can0 42D#0002BA000000F000
(1513194271.160751) can0 2FD#0D000238FC000000
(1513194271.161002) can0 42F#7D04002E661802F2
(1513194271.161250) can0 30A#D700000000000000
(1513194271.161501) can0 43E#0061100000000000
(1513194271.161750) can0 30F#0000000000000000
(1513194271.162000) can0 313#0009000000170000
(1513194271.162251) can0 315#00000000000008BA
(1513194271.162502) can0 316#0000000000000000
(1513194271.162751) can0 317#03FE000669480400
(1513194271.163000) can0 318#000000000012B000
(1513194271.163250) can0 213#FFFF00040001FF40
(1513194271.163500) can0 346#000000030300C000
(1513194271.163624) can0 216#4F3D0EB000000000
(1513194271.163874) can0 348#0000000000000000
(1513194271.164124) can0 415#1D7CE85908010801
(1513194271.164499) can0 350#0000000000000000
(1513194271.164623) can0 353#000000000037B0AC
(1513194271.164874) can0 3C8#0000000000000000
(1513194271.165265) can0 3E0#0000000080000000
(1513194271.165514) can0 167#72801410001A2800
(1513194271.165623) can0 202#045F000060991D80
(1513194271.165873) can0 204#C0007D02ED000000
(1513194271.166138) can0 3FB#0000000004000000
(1513194271.166524) can0 430#450035F708002401
(1513194271.166633) can0 434#43DC700020FFF3E1
(1513194271.166874) can0 076#BE83F01BFB1D7500
(1513194271.167134) can0 20A#01B0000000004E20
(1513194271.167372) can0 45A#0000000000000000
(1513194271.175885) can0 167#72801410001A2800
(1513194271.176372) can0 202#045F080060991D7F
(1513194271.176617) can0 204#C0007D02EE000000
(1513194271.177015) can0 3CA#EBC4000004000000
(1513194271.183132) can0 213#FFFF00040001FF40
(1513194271.183504) can0 216#695628CB00000000
(1513194271.184005) can0 415#1D7CEC5808010801
(1513194271.185268) can0 167#72801410001A2800
(1513194271.185502) can0 171#646C000000000000
(1513194271.185783) can0 202#045F100060991D7E
(1513194271.186006) can0 204#C0007D02EE000000
(1513194271.186252) can0 42F#7D04002E661802F2
(1513194271.186891) can0 076#BE83EFFBF61D7700
(1513194271.187001) can0 20A#01B0000000004E20
(1513194271.187250) can0 2A4#1024898200007D00
(1513194271.190142) can0 2AC#3000000000000000
(1513194271.195763) can0 167#72801410001A2800
(1513194271.196518) can0 202#045E180060991D7E
(1513194271.196747) can0 04A#0200000000000000
(1513194271.196996) can0 04B#00C0D8D8D8D8C000
(1513194271.197227) can0 204#C0007D02ED000000
(1513194271.197497) can0 2A4#21007D00007D0000
(1513194271.202549) can0 3E7#0000000000000000
(1513194271.203143) can0 213#FFFF00040001FF40
(1513194271.203493) can0 216#837042E500000000
(1513194271.204293) can0 415#1D81F05208010801
(1513194271.205297) can0 167#72801410001A2900
(1513194271.205498) can0 202#045E200060991D7D
(1513194271.205746) can0 204#C0007D02ED000000
(1513194271.206079) can0 261#0000000000000000
(1513194271.206495) can0 43E#0061100000000000
(1513194271.206995) can0 048#000000000700E000
(1513194271.207229) can0 076#BE83EFEBF21D7700
(1513194271.207493) can0 077#F80617FF5001C101
(1513194271.207729) can0 109#176B31001D7D0000
(1513194271.207985) can0 20A#01B0000000004E20
(1513194271.208230) can0 2A4#227D00007D000221
(1513194271.208493) can0 3CA#EBC4000004000000
(1513194271.208742) can0 412#0000000000000000
(1513194271.208983) can0 433#0000000000900000
(1513194271.209222) can0 470#019BC09900102000
(1513194271.209472) can0 4A2#0000000000000000
(1513194271.215881) can0 167#72801410001A2900
(1513194271.216098) can0 171#646C000000000000
(1513194271.216589) can0 202#045D280060991D7D
(1513194271.216839) can0 204#C0007D02EC000000
(1513194271.217216) can0 2A4#2300021900022C00
(1513194271.217465) can0 42F#7D04002E661802F2
(1513194271.223097) can0 213#FFFF00040001FF40
(1513194271.223489) can0 216#9D8A5CFF00000000
(1513194271.223985) can0 415#1D84F44E08010801
(1513194271.224234) can0 416#5900F50001000000
(1513194271.225358) can0 167#72801410001A2900
(1513194271.225617) can0 202#045B300060991D7E
(1513194271.225841) can0 204#C0007D02EC000000
(1513194271.226706) can0 076#BE83EFE3F81D7500
(1513194271.226956) can0 077#F80717FF5001C101
(1513194271.227206) can0 20A#01B0000000004E20
(1513194271.227455) can0 2A4#24027D00023B0002
(1513194271.235953) can0 167#72801410001A2900
(1513194271.236452) can0 202#045A380060991D7E
(1513194271.236701) can0 3CA#EBC4000004000000
(1513194271.236951) can0 204#C0007D02ED000000
(1513194271.237201) can0 2A4#25030B0000000000
(1513194271.237450) can0 290#0000000000000000
(1513194271.237700) can0 462#63EA90F634F05FDC
(1513194271.237950) can0 465#63EA90F634F05FDC
(1513194271.238201) can0 464#9A801005B9301020
(1513194271.238450) can0 467#9A801005B9301020
(1513194271.240701) can0 18A#0020180114000000
(1513194271.243074) can0 213#FFFF00040001FF40
(1513194271.243447) can0 216#B6A4751800000000
(1513194271.243947) can0 415#1D7BF85608020802
(1513194271.245071) can0 167#72801410001A2900
(1513194271.245446) can0 171#646C000000000000
(1513194271.245571) can0 202#045A400060991D7D
(1513194271.245821) can0 204#C0007D02ED000000
(1513194271.246071) can0 42F#7D04002E661802F2
(1513194271.246710) can0 076#BE83EFE3FE1D7400
(1513194271.246972) can0 077#F80817FF5001C101
(1513194271.247206) can0 20A#01B0000000004E20
(1513194271.250346) can0 04C#106FFFC000000000
(1513194271.255600) can0 156#9400000003000000
(1513194271.256130) can0 166#75200000E8330000
(1513194271.256332) can0 167#72801410001A2900
(1513194271.256605) can0 178#000002000E82CA82
(1513194271.256853) can0 2A1#FFFFFFFF00000000
(1513194271.257106) can0 412#0000000000000000
(1513194271.257205) can0 179#1A290000BA0B0AE2
(1513194271.257472) can0 346#000000030300C000
(1513194271.257717) can0 202#0459480060991D7D
(1513194271.257950) can0 204#C0007D02EE000000
(1513194271.258217) can0 348#0000000000000000
(1513194271.258467) can0 261#0000000000000000
(1513194271.258716) can0 262#0000000000000000
(1513194271.258966) can0 421#0200580000006500
(1513194271.259216) can0 430#450035F708002401
(1513194271.259466) can0 42D#0002BA000000F000
(1513194271.259691) can0 434#43DC700020FFF3E3
(1513194271.259940) can0 43E#0061100000000000
(1513194271.262948) can0 076#BE84EFF3F91D7500
(1513194271.263221) can0 213#FFFF00040001FF40
(1513194271.263465) can0 216#D0BE8F3200000000
(1513194271.264213) can0 415#1D78FC5808020802
(1513194271.265214) can0 167#72801410001A2900
(1513194271.265463) can0 202#0459500060991D7C
(1513194271.265697) can0 204#C0007D02EE000000
(1513194271.266572) can0 20A#01B0000000004E20
(1513194271.266814) can0 3CA#EBC4000004000000
(1513194271.275845) can0 167#72801410001A2900
(1513194271.276068) can0 171#646C000000000000
(1513194271.276459) can0 202#0459580060991D7B
(1513194271.276692) can0 076#3E84CFF3F81D7500
(1513194271.276961) can0 204#C0007D02EF000000
(1513194271.277216) can0 42F#7D04002E661802F1
(1513194271.283122) can0 213#FFFF00040001FF40
(1513194271.283592) can0 216#EAD7AA4C00000000
(1513194271.283995) can0 415#1D76C06908020802
(1513194271.285119) can0 167#72801410001A2900
(1513194271.285441) can0 202#0459600060991D7A
(1513194271.285564) can0 204#C0007D02EF000000
(1513194271.286593) can0 077#F80A17FF5001C101
(1513194271.286820) can0 20A#01B0000000004E20
(1513194271.287070) can0 2A4#1024898200007D00
(1513194271.289581) can0 3AA#0022200000000000
(1513194271.289812) can0 3AB#1200000040000000
(1513194271.290062) can0 2AC#3000000000000000
(1513194271.291435) can0 076#BE84EFE3F21D7500
(1513194271.294245) can0 3A7#0E401A045F700000
(1513194271.296091) can0 167#72801410001A2900
(1513194271.296447) can0 3CA#EBC4000004000000
(1513194271.296718) can0 202#0459680060991D79
(1513194271.297069) can0 204#C0007D02EF000000
(1513194271.297319) can0 2A4#21007D00007D0000
(1513194271.303084) can0 213#FFFF00040001FE40
(1513194271.303457) can0 216#05F1C46600000000
(1513194271.303958) can0 415#1D79C46508020802
(1513194271.305240) can0 167#72801410001A2900
(1513194271.305444) can0 171#646C000000000000
(1513194271.305691) can0 202#0458700060991D79
(1513194271.306035) can0 204#C0007D02EF000000
(1513194271.306168) can0 261#0000000000000000
(1513194271.306442) can0 42F#7D04002E661802F1
(1513194271.306821) can0 43E#0061100000000000
(1513194271.307057) can0 048#000000000700E000
(1513194271.307298) can0 076#BE84EFE3F61D7400
(1513194271.307547) can0 077#F80917FF5001C101
(1513194271.307798) can0 14C#0800000100000000
(1513194271.308049) can0 20A#01B0000000004E20
(1513194271.308297) can0 2A4#227D00007D000221
(1513194271.308548) can0 412#0000000000000000
(1513194271.308806) can0 433#0000000000900000
(1513194271.309052) can0 470#019BC09900102000
(1513194271.309301) can0 4A2#0000000000000000
(1513194271.309553) can0 38D#2000000000000000
(1513194271.310179) can0 3B8#FFFFFFFF00000000
(1513194271.310420) can0 3E3#0001041380026400
(1513194271.310666) can0 3EC#C604140000100000
(1513194271.310920) can0 40A#C00000176E98C600
(1513194271.311583) can0 447#2100000004000000
(1513194271.312083) can0 109#177B31001D790000
(1513194271.315831) can0 167#72801410001A2900
(1513194271.316325) can0 202#0458780060991D78
(1513194271.316538) can0 204#C0007D02EF000000
(1513194271.317191) can0 2A4#2300021900022C00
(1513194271.323065) can0 213#FFFF00040001FE40
(1513194271.323413) can0 216#1F0BDE7F00000000
(1513194271.324202) can0 415#1D7EC85F08020802
