(1513194232.811765) can0 167#72803410001A6200
(1513194232.812304) can0 202#0467180060991D75
(1513194232.812521) can0 204#C0007D02EE000000
(1513194232.817409) can0 20A#01B0000000004E20
(1513194232.819404) can0 213#FFFF00040001FF40
(1513194232.819909) can0 216#1F3F3A3C00000000
(1513194232.820398) can0 415#1D76F05D07E707E7
(1513194232.821663) can0 167#72803410001A6200
(1513194232.821908) can0 202#0466200060991D75
(1513194232.822147) can0 204#C0007D02EC000000
(1513194232.822393) can0 261#0000000000000000
(1513194232.822768) can0 43E#0061100000000000
(1513194232.823018) can0 076#BE69EFDC041D6A00
(1513194232.827032) can0 3B8#FFFFFFFF00000000
(1513194232.827671) can0 109#176331001D750000
(1513194232.827885) can0 3CA#EBC4000004000000
(1513194232.831794) can0 167#72803410001A6200
(1513194232.832009) can0 171#646C000000000000
(1513194232.832550) can0 202#0466280060991D74
(1513194232.832758) can0 204#C0007D02EC000000
(1513194232.833543) can0 42F#7D04002E662802EE
(1513194232.837168) can0 315#0000000000000929
(1513194232.837381) can0 2A4#1024898200007D00
(1513194232.837632) can0 076#3E69CFDC041D6A00
(1513194232.837904) can0 20A#01B0000000004E20
(1513194232.838133) can0 2AC#3000000000000000
(1513194232.839417) can0 213#FFFF00040001FF40
(1513194232.839899) can0 216#395A545500000000
(1513194232.840387) can0 415#1D7EF45407E707E7
(1513194232.840642) can0 416#5900F50001000000
(1513194232.841650) can0 167#72803510001A6200
(1513194232.841874) can0 202#0465300060991D74
(1513194232.842131) can0 204#C0007D02EB000000
(1513194232.847270) can0 2A4#21007D00007D0000
(1513194232.852037) can0 167#72803510001A6200
(1513194232.852533) can0 202#0462380060991D76
(1513194232.852751) can0 076#BE6AEFD4041D6B00
(1513194232.852999) can0 204#C0007D02EB000000
(1513194232.855192) can0 290#0000000000000000
(1513194232.855379) can0 462#63EA92A234F061B0
(1513194232.855623) can0 464#9A80104D292F1020
(1513194232.855870) can0 465#63EA92A234F061B0
(1513194232.855992) can0 467#9A80104D292F1020
(1513194232.857265) can0 2A4#227D00007D000221
(1513194232.857498) can0 048#000000000700E000
(1513194232.857748) can0 20A#01B0000000004E20
(1513194232.857996) can0 3CA#EBC4000004000000
(1513194232.858244) can0 412#0000000000000000
(1513194232.858495) can0 2A1#FFFFFFFF00000000
(1513194232.858745) can0 433#0000000000900000
(1513194232.858996) can0 470#019BC09800102000
(1513194232.859244) can0 4A2#0000000000000000
(1513194232.859618) can0 213#FFFF00040001FF40
(1513194232.859993) can0 216#53746D6F00000000
(1513194232.860505) can0 415#1D78F85907E707E7
(1513194232.861491) can0 167#72803510001A6200
(1513194232.861741) can0 171#646C000000000000
(1513194232.862004) can0 202#0460400060991D77
(1513194232.862251) can0 204#C0007D02EC000000
(1513194232.862742) can0 42F#7D04002E662902EE
(1513194232.862999) can0 077#F7DF17FF5001C101
(1513194232.867266) can0 076#BE6AEFDC031D6A00
(1513194232.867496) can0 2A4#2300021900022C00
(1513194232.868747) can0 04C#106FFFC000000000
(1513194232.870001) can0 18A#0020180114000000
(1513194232.870267) can0 3E5#0000000080000000
(1513194232.871642) can0 156#9100000003000000
(1513194232.872011) can0 166#75200000E8330000
(1513194232.872244) can0 167#72803510001A6200
(1513194232.872618) can0 178#000001FF0E84CA83
(1513194232.872743) can0 179#1A620000BA41093D
(1513194232.873258) can0 202#045F480060991D77
(1513194232.873487) can0 204#C0007D02EC000000
(1513194232.874257) can0 261#0000000000000000
(1513194232.874493) can0 262#0000000000000000
(1513194232.874735) can0 421#0200580000006400
(1513194232.874985) can0 42D#0002C9000000F000
(1513194232.875368) can0 43E#0061100000000000
(1513194232.877240) can0 2A4#24027D00023B0002
(1513194232.877615) can0 20A#01B0000000004E20
(1513194232.879374) can0 213#FFFF00040001FF40
(1513194232.879874) can0 216#6D8E878900000000
(1513194232.880377) can0 415#1D77FC5907E807E8
(1513194232.881629) can0 167#72803510001A6300
(1513194232.881895) can0 202#045F500060991D76
(1513194232.882122) can0 204#C0007D02EC000000
(1513194232.882893) can0 076#BE6AEFDC061D6B00
(1513194232.883137) can0 077#F7DE17FF5001C101
(1513194232.886760) can0 3B5#0117010B010700FF
(1513194232.887292) can0 2A4#25030B0000000000
(1513194232.887480) can0 3CA#EBC4000004000000
(1513194232.887742) can0 46B#D1A045F820008000
(1513194232.891764) can0 167#72803510001A6300
(1513194232.891996) can0 171#646C000000000000
(1513194232.892495) can0 202#045E580060991D76
(1513194232.892735) can0 204#C0007D02EC000000
(1513194232.893234) can0 42F#7D04002E662902EE
(1513194232.897261) can0 076#3E6ACFDC061D6B00
(1513194232.897607) can0 20A#01B0000000004E20
(1513194232.899386) can0 213#FFFF00040001FF40
(1513194232.899866) can0 216#86A8A1A300000000
(1513194232.900366) can0 415#1D75C06A07E807E8
(1513194232.901634) can0 167#72803510001A6300
(1513194232.901869) can0 202#045D600060991D76
(1513194232.902116) can0 204#C0007D02EB000000
(1513194232.902366) can0 3A7#0E401A045F700000
(1513194232.902881) can0 077#F7DD17FF5001C101
(1513194232.906599) can0 3AA#0022200000000000
(1513194232.906847) can0 3AB#1200000040000000
(1513194232.907100) can0 346#000000030300C000
(1513194232.907352) can0 348#0000000000000000
(1513194232.907599) can0 412#0000000000000000
(1513194232.907849) can0 42C#B430C480640004A8
(1513194232.908094) can0 430#450035F608002401
(1513194232.908350) can0 434#43DC700020FFF3E3
(1513194232.911752) can0 167#72803510001A6300
(1513194232.912243) can0 202#045D680060991D75
(1513194232.912602) can0 204#C0007D02EB000000
(1513194232.915247) can0 463#98ACE02A18B03800
(1513194232.915497) can0 466#98ACE02A18B03800
(1513194232.917115) can0 076#BE6AEFEC061D6C00
(1513194232.917365) can0 20A#01B0000000004E20
(1513194232.917621) can0 3CA#EBC4000004000000
(1513194232.919364) can0 213#FFFF00040001FF40
(1513194232.919865) can0 216#A0C1BBBC00000000
(1513194232.920364) can0 415#1D77C46707E807E8
(1513194232.921599) can0 167#72803510001A6300
(1513194232.921870) can0 171#646C000000000000
(1513194232.922119) can0 202#045C700060991D75
(1513194232.922370) can0 204#C0007D02EB000000
(1513194232.922619) can0 261#0000000000000000
(1513194232.922869) can0 42F#7D04002E662902EE
(1513194232.923118) can0 077#F7DE17FF5001C101
(1513194232.923346) can0 43E#0061100000000000
(1513194232.926747) can0 3B2#4048061210050002
(1513194232.926974) can0 40A#C00000176E974600
(1513194232.931717) can0 167#72803510001A6300
(1513194232.932113) can0 3A6#0E401A045F700000
(1513194232.932347) can0 202#045B780060991D75
(1513194232.932597) can0 204#C0007D02EB000000
(1513194232.932870) can0 076#BE6BEFEC001D6C00
(1513194232.933096) can0 109#175B31001D750000
(1513194232.936095) can0 3E1#8000010701800000
(1513194232.937095) can0 353#00000000002CB0AC
(1513194232.937329) can0 20A#01B0000000004E20
(1513194232.937594) can0 2A4#1024898200007D00
(1513194232.939328) can0 213#FFFF00040001FF40
(1513194232.939831) can0 216#BADBD4D600000000
(1513194232.940348) can0 415#1D79C86407E907E9
(1513194232.940597) can0 416#5A00F40001000000
(1513194232.941609) can0 167#72803510001A6300
(1513194232.941843) can0 202#046A000060991D75
(1513194232.942092) can0 204#C0007D02ED000000
(1513194232.942824) can0 077#F7E017FF5001C101
(1513194232.947109) can0 076#BE6BEFDBFE1D6B00
(1513194232.947340) can0 3CA#EBC4000004000000
(1513194232.947889) can0 2AC#3000000000000000
(1513194232.952016) can0 167#72803510001A6300
(1513194232.952199) can0 171#646C000000000000
(1513194232.952761) can0 202#0468080060991D76
(1513194232.952952) can0 204#C0007D02ED000000
(1513194232.953474) can0 42F#7D04002E662902ED
(1513194232.957096) can0 2A4#21007D00007D0000
(1513194232.957361) can0 048#000000000700E000
(1513194232.957585) can0 14C#0800000100000000
(1513194232.957827) can0 20A#01B0000000004E20
(1513194232.958077) can0 412#0000000000000000
(1513194232.958327) can0 2A1#FFFFFFFF00000000
(1513194232.958566) can0 433#0000000000900000
(1513194232.958817) can0 470#019BC09800102000
(1513194232.959076) can0 4A2#0000000000000000
(1513194232.959582) can0 213#FFFF00040001FF40
(1513194232.959968) can0 216#D4F5EEF000000000
(1513194232.961226) can0 415#1D77CC6507E907E9
(1513194232.961458) can0 167#72803510001A6300
(1513194232.961700) can0 202#0467100060991D76
(1513194232.962035) can0 204#C0007D02ED000000
(1513194232.962841) can0 076#BE6BEFD4031D6A00
(1513194232.967200) can0 2A4#227D00007D000221
(1513194232.969194) can0 04C#106FFFC000000000
(1513194232.969818) can0 18A#0020180114000000
(1513194232.971579) can0 156#9100000003000000
(1513194232.971935) can0 166#75200000E8330000
(1513194232.972190) can0 167#72803510001A6300
(1513194232.972437) can0 178#000002000E84CA83
(1513194232.972685) can0 179#1A630000BA4B0945
(1513194232.973209) can0 202#0466180060991D76
(1513194232.973432) can0 204#C0007D02ED000000
(1513194232.974218) can0 261#0000000000000000
(1513194232.974452) can0 262#0000000000000000
(1513194232.974733) can0 421#0200580000006400
(1513194232.974957) can0 42D#0002C9000000F000
(1513194232.975335) can0 43E#0061100000000000
(1513194232.977207) can0 2A4#2300021900022C00
(1513194232.977471) can0 076#3E6BCFD4021D6A00
(1513194232.977691) can0 20A#01B0000000004E20
(1513194232.977951) can0 3CA#EBC4000004000000
(1513194232.979340) can0 213#FFFF00040001FF40
(1513194232.979840) can0 216#ED0F080A00000000
(1513194232.980340) can0 415#1D79D06207E907E9
(1513194232.981584) can0 167#72803510001A6300
(1513194232.981813) can0 171#646C000000000000
(1513194232.982064) can0 202#0465200060991D76
(1513194232.982316) can0 204#C0007D02EB000000
(1513194232.982581) can0 42F#7D04002E662902ED
(1513194232.982837) can0 077#F7E117FF5001C101
(1513194232.987085) can0 2A4#24027D00023B0002
(1513194232.991717) can0 167#72803510001A6300
(1513194232.992212) can0 202#0464280060991D76
(1513194232.992559) can0 204#C0007D02EB000000
(1513194232.997063) can0 2A4#25030B0000000000
(1513194232.997302) can0 076#BE6BEFDC041D6A00
(1513194232.997551) can0 20A#01B0000000004E20
(1513194232.999317) can0 213#FFFF00040001FF40
(1513194232.999817) can0 216#0728222300000000
(1513194233.000318) can0 415#1D71D46907EA07EA
(1513194233.001569) can0 167#72803510001A6300
(1513194233.001802) can0 202#0464300060991D75
(1513194233.002066) can0 204#C0007D02EB000000
(1513194233.006954) can0 287#0000000000000000
(1513194233.007172) can0 30A#D700000000000000
(1513194233.007422) can0 3CA#EBC4000004000000
(1513194233.007672) can0 346#000000030300C000
(1513194233.007922) can0 412#0000000000000000
(1513194233.008172) can0 348#0000000000000000
(1513194233.008422) can0 430#450035F608002401
(1513194233.008678) can0 434#43DC700020FFF3E3
(1513194233.011692) can0 167#72803510001A6300
(1513194233.011920) can0 171#646C000000000000
(1513194233.012441) can0 202#0464380060991D74
(1513194233.012668) can0 204#C0007D02EB000000
(1513194233.013199) can0 42F#7D04002E662902ED
(1513194233.017191) can0 076#BE6BEFF4041D6B00
(1513194233.017436) can0 20A#01B0000000004E20
(1513194233.019312) can0 213#FFFF00040001FF40
(1513194233.019811) can0 216#21423C3D00000000
(1513194233.020288) can0 415#1D77D86207EA07EA
(1513194233.021564) can0 167#72803510001A6300
(1513194233.021809) can0 202#0463400060991D74
(1513194233.022043) can0 204#C0007D02EC000000
(1513194233.022310) can0 261#0000000000000000
(1513194233.022835) can0 43E#0061100000000000
(1513194233.022934) can0 077#F7E017FF5001C101
(1513194233.031682) can0 167#72803510001A6400
(1513194233.032180) can0 202#0462480060991D74
(1513194233.032556) can0 204#C0007D02EC000000
(1513194233.032676) can0 076#BE6DEFF4061D6C00
(1513194233.035683) can0 084#1100015B2B3A0E00
(1513194233.037105) can0 2A4#1024898200007D00
(1513194233.037287) can0 109#176331001D740000
(1513194233.037553) can0 20A#01B0000000004E20
(1513194233.037784) can0 3CA#EBC4000004000000
(1513194233.038065) can0 2AC#3000000000000000
(1513194233.039318) can0 213#FFFF00040001FF40
(1513194233.039835) can0 216#3B5D555700000000
(1513194233.040332) can0 415#1D7ADC5E07EA07EA
(1513194233.040535) can0 416#5B00F30001000000
(1513194233.041567) can0 167#72803510001A6400
(1513194233.041782) can0 171#646C000000000000
(1513194233.041959) can0 202#0460500060991D75
(1513194233.042287) can0 204#C0007D02EC000000
(1513194233.042662) can0 077#F7E117FF5001C101
(1513194233.042910) can0 42F#7D04002E662902ED
(1513194233.047074) can0 2A4#21007D00007D0000
(1513194233.047277) can0 076#BE6DEFDC021D6D00
(1513194233.051976) can0 167#72803610001A6400
(1513194233.052412) can0 202#045F580060991D75
(1513194233.052652) can0 204#C0007D02EC000000
(1513194233.054918) can0 290#0000000000000000
(1513194233.057020) can0 2A4#227D00007D000221
(1513194233.057270) can0 048#000000000700E000
(1513194233.057532) can0 20A#01B0000000004E20
(1513194233.057769) can0 412#0000000000000000
(1513194233.058020) can0 433#0000000000900000
(1513194233.058271) can0 081#0000000000000000
(1513194233.058522) can0 470#019BC09800102000
(1513194233.058773) can0 4A2#0000000000000000
(1513194233.059521) can0 213#FFFF00040001FF40
(1513194233.060019) can0 216#56776F7100000000
(1513194233.060520) can0 2A1#FFFFFFFF00000000
(1513194233.061282) can0 167#72803610001A6400
(1513194233.061517) can0 3E6#0001040880000000
(1513194233.061777) can0 202#045D600060991D76
(1513194233.062044) can0 415#1D7EE05907EB07EB
(1513194233.062145) can0 204#C0007D02EC000000
(1513194233.062767) can0 076#BE6DEFCC031D6C00
(1513194233.067025) can0 2A4#2300021900022C00
(1513194233.067266) can0 3CA#EBC4000004000000
(1513194233.067787) can0 18A#0020180114000000
(1513194233.069038) can0 04C#106FFFC000000000
(1513194233.071575) can0 156#9100000003000000
(1513194233.071890) can0 166#75200000E8330000
(1513194233.072145) can0 167#72803610001A6400
(1513194233.072536) can0 171#646C000000000000
(1513194233.072635) can0 178#000001FF0E84CA83
(1513194233.072910) can0 179#1A640000BA56094B
(1513194233.073667) can0 202#045B680060991D77
(1513194233.073988) can0 204#C0007D02EC000000
(1513194233.074432) can0 261#0000000000000000
(1513194233.074638) can0 262#0000000000000000
(1513194233.074895) can0 421#0200580000006400
(1513194233.075144) can0 42D#0002C9000000F000
(1513194233.075420) can0 42F#7D04002E662902ED
(1513194233.076536) can0 43E#0061100000000000
(1513194233.077034) can0 2A4#24027D00023B0002
(1513194233.077537) can0 076#3E6DCFCC021D6C00
(1513194233.077760) can0 20A#01B0000000004E20
(1513194233.079408) can0 213#FFFF00040001FF40
(1513194233.079783) can0 216#7091898C00000000
(1513194233.080284) can0 415#1D7DE45907EB07EB
(1513194233.081282) can0 167#72803610001A6400
(1513194233.081535) can0 202#0459700060991D78
(1513194233.081759) can0 204#C0007D02EB000000
(1513194233.082532) can0 077#F7E217FF5001C101
(1513194233.087031) can0 2A4#25030B0000000000
(1513194233.091647) can0 167#72803610001A6400
(1513194233.092148) can0 202#0458780060991D78
(1513194233.092507) can0 204#C0007D02EB000000
(1513194233.097026) can0 076#BE6DEFDC061D6C00
(1513194233.097277) can0 20A#01B0000000004E20
(1513194233.097528) can0 3CA#EBC4000004000000
(1513194233.099276) can0 213#FFFF000400020040
(1513194233.099807) can0 216#89ABA3A600000000
(1513194233.100274) can0 415#1D73E86207EC07EC
(1513194233.100509) can0 3A7#0E401A045F700000
(1513194233.101525) can0 167#72803610001A6400
(1513194233.101766) can0 171#646C000000000000
(1513194233.102001) can0 202#0468000060991D77
(1513194233.102254) can0 204#C0007D02EC000000
(1513194233.102516) can0 42F#7D04002E662902ED
(1513194233.102759) can0 077#F7E317FF5001C101
(1513194233.104117) can0 3DE#0000000080000000
(1513194233.106493) can0 3AA#0022200000000000
(1513194233.106740) can0 3AB#1200000040000000
(1513194233.106991) can0 346#000000030300C000
(1513194233.107240) can0 348#0000000000000000
(1513194233.107490) can0 412#0000000000000000
(1513194233.107740) can0 430#450035F608002401
(1513194233.107990) can0 434#43DC700020FFF3E3
(1513194233.111642) can0 167#72803610001A6400
(1513194233.112141) can0 202#0468080060991D76
(1513194233.112517) can0 204#C0007D02EC000000
(1513194233.113021) can0 076#BE6EEFFC061D6D00
(1513194233.117051) can0 20A#01B0000000004E20
(1513194233.119179) can0 213#FFFF00040001FF40
(1513194233.119651) can0 216#A3C4BCC000000000
(1513194233.120001) can0 415#1D7AEC5A07EC07EC
(1513194233.121262) can0 167#72803610001A6400
(1513194233.121509) can0 202#0467100060991D76
(1513194233.121867) can0 204#C0007D02ED000000
(1513194233.122109) can0 261#0000000000000000
(1513194233.122484) can0 43E#0061100000000000
(1513194233.126624) can0 40A#C100334641365030
(1513194233.127495) can0 076#BE6EEFFC041D6E00
(1513194233.127760) can0 3CA#EBC4000004000000
(1513194233.131637) can0 167#72803610001A6400
(1513194233.131856) can0 171#646C000000000000
(1513194233.132105) can0 3A6#0E401A045F700000
(1513194233.132478) can0 202#0465180060991D77
(1513194233.132605) can0 204#C0007D02ED000000
(1513194233.133353) can0 42F#7D04002E662902ED
(1513194233.136742) can0 315#0000000000000921
(1513194233.136975) can0 2A4#1024898200007D00
(1513194233.137237) can0 20A#01B0000000004E20
(1513194233.137610) can0 2AC#3000000000000000
(1513194233.139235) can0 213#FFFF00040001FF40
(1513194233.139750) can0 216#BDDED8D900000000
(1513194233.140250) can0 415#1D7CF05707EC07EC
(1513194233.140484) can0 416#5C00F20001000000
(1513194233.141250) can0 167#72803610001A6400
(1513194233.141748) can0 202#0464200060991D77
(1513194233.141974) can0 204#C0007D02EC000000
(1513194233.142499) can0 076#BE6EEFDC001D6E00
(1513194233.142733) can0 077#F7E217FF5001C101
(1513194233.142857) can0 109#176B31001D770000
(1513194233.146871) can0 2A4#21007D00007D0000
(1513194233.151885) can0 167#72803610001A6400
(1513194233.152488) can0 202#0462280060991D78
(1513194233.152600) can0 204#C0007D02EC000000
(1513194233.156288) can0 59E#9E00FFFFFFFFFFFF
(1513194233.156913) can0 2A4#227D00007D000221
(1513194233.157115) can0 048#000000000700E000
(1513194233.157346) can0 076#3E6ECFDC001D6E00
(1513194233.157602) can0 077#17E217FF5001C001
(1513194233.157871) can0 108#0004040040009E64
(1513194233.158101) can0 14C#0800000100000000
(1513194233.158366) can0 20A#01B0000000004E20
(1513194233.158602) can0 276#0000000000000000
(1513194233.158851) can0 277#0800000002838888
(1513194233.159091) can0 279#0050003C00960000
(1513194233.159342) can0 2A1#FFFFFFFF00000000
(1513194233.159590) can0 303#000008040E052000
(1513194233.159717) can0 213#FFFF00040001FF40
(1513194233.159992) can0 38A#4300200208470000
(1513194233.160242) can0 216#D7F8F1F300000000
(1513194233.160490) can0 3B3#4040001292050100
(1513194233.160747) can0 3CA#EBC4000004000000
(1513194233.160997) can0 3D0#034F059388000000
(1513194233.161247) can0 412#0000000000000000
(1513194233.161474) can0 167#72803610001A6400
(1513194233.161723) can0 171#646C000000000000
(1513194233.161973) can0 202#0461300060991D78
(1513194233.162224) can0 204#C0007D02ED000000
(1513194233.162474) can0 415#1D7AF45807ED07ED
(1513194233.162587) can0 42C#B030C480640004A8
(1513194233.162838) can0 42F#7D04002E662902ED
(1513194233.163087) can0 431#0000208008400086
(1513194233.163337) can0 432#2680000000040000
(1513194233.163587) can0 433#0000000000900000
(1513194233.163837) can0 435#0000000000000000
(1513194233.164086) can0 46A#0004208800000000
(1513194233.164336) can0 46B#D1A045F820008000
(1513194233.164587) can0 470#019BC09800102000
(1513194233.164836) can0 4A2#0000000000000000
(1513194233.165726) can0 22C#000A000000000000
(1513194233.166978) can0 2A4#2300021900022C00
(1513194233.167335) can0 18A#0020180114000000
(1513194233.167585) can0 360#6000018000910000
(1513194233.168849) can0 04C#106FFFC000000000
(1513194233.169599) can0 361#054D313831380000
(1513194233.171487) can0 156#9100000003000000
(1513194233.171985) can0 166#75200000E8330000
(1513194233.172084) can0 167#72803610001A6500
(1513194233.172484) can0 178#000002000E84CA83
(1513194233.172743) can0 179#1A650000BA600953
(1513194233.172832) can0 076#BE6FEFDC011D6D00
(1513194233.173082) can0 077#F7E317FF5001C101
(1513194233.173332) can0 202#0460380060991D78
(1513194233.173582) can0 204#C0007D02ED000000
(1513194233.174110) can0 261#0000000000000000
(1513194233.174483) can0 262#0000000000000000
(1513194233.174581) can0 421#0200580000006400
(1513194233.174858) can0 42D#0002C9000000F000
(1513194233.175359) can0 43E#0061100000000000
(1513194233.176859) can0 2A4#24027D00023B0002
(1513194233.177234) can0 3E7#0000000000000000
(1513194233.177479) can0 20A#01B0000000004E20
(1513194233.179233) can0 213#FFFF00040001FF40
(1513194233.179733) can0 216#F1120B0D00000000
(1513194233.180231) can0 415#1D75F85C07ED07ED
(1513194233.181465) can0 167#72803610001A6400
(1513194233.181716) can0 202#0460400060991D77
(1513194233.181967) can0 204#C0007D02ED000000
(1513194233.186871) can0 591#9100FFFFFFFFFFFF
(1513194233.187100) can0 076#BE6FEFC4081D6D00
(1513194233.187328) can0 077#E7E517FF50004101
(1513194233.187595) can0 2A4#25030B0000000000
(1513194233.187829) can0 3CA#EBC4000004000000
(1513194233.191601) can0 167#72803610001A6400
(1513194233.191828) can0 171#646C000000000000
(1513194233.192077) can0 307#0100000000000000
(1513194233.192473) can0 202#0460480060991D76
(1513194233.192573) can0 204#C0007D02ED000000
(1513194233.193076) can0 42F#7D04002E662902ED
(1513194233.196971) can0 20A#01B0000000004E20
(1513194233.199237) can0 213#FFFF00040001FF40
(1513194233.199719) can0 216#0A2C252700000000
(1513194233.200219) can0 415#1D74FC5C07EE07EE
(1513194233.201470) can0 167#72803610001A6500
(1513194233.201695) can0 202#045F500060991D76
(1513194233.201945) can0 204#C0007D02ED000000
(1513194233.202472) can0 076#BE70EFDC061D6D00
(1513194233.206732) can0 18B#0000001E00000000
(1513194233.206944) can0 19A#0000000240000000
(1513194233.207230) can0 412#0000000000000000
(1513194233.207441) can0 220#1001000000000000
(1513194233.207723) can0 225#2041800000000000
(1513194233.207959) can0 287#0000000000000000
(1513194233.208191) can0 2F4#1001000000000000
(1513194233.208442) can0 2FD#0D000238FC000000
(1513194233.208693) can0 30A#D700000000000000
(1513194233.208943) can0 30F#0000000000000000
(1513194233.209224) can0 313#0008000000100000
(1513194233.209441) can0 315#0000000000000921
(1513194233.209692) can0 316#0000000000000000
(1513194233.209941) can0 317#03FE00081DCA0400
(1513194233.210191) can0 318#000000000012B700
(1513194233.210441) can0 346#000000030300C000
(1513194233.210702) can0 348#0000000000000000
(1513194233.210942) can0 350#0000000000000000
(1513194233.211191) can0 353#00000000002CB0AC
(1513194233.211440) can0 3C8#0000000000000000
(1513194233.211692) can0 167#72803610001A6500
(1513194233.211958) can0 3E0#0000000080000000
(1513194233.212192) can0 202#045F580060991D75
(1513194233.212442) can0 204#C0007D02ED000000
(1513194233.212691) can0 3FB#0000000004000000
(1513194233.212941) can0 430#450035F608002401
(1513194233.213221) can0 434#43DC700020FFF3E3
(1513194233.213440) can0 45A#0000000000000000
(1513194233.217466) can0 076#3E70CFDC061D6D00
(1513194233.217719) can0 20A#01B0000000004E20
(1513194233.217811) can0 3CA#EBC4000004000000
(1513194233.219226) can0 213#FFFF00040001FF40
(1513194233.219715) can0 216#24453F4000000000
(1513194233.220212) can0 415#1D7FC06007EE07EE
(1513194233.221463) can0 167#72803610001A6500
(1513194233.221739) can0 171#646C000000000000
(1513194233.221936) can0 202#045D600060991D76
(1513194233.222195) can0 204#C0007D02ED000000
(1513194233.222434) can0 077#F7E617FF5001C101
(1513194233.222684) can0 261#0000000000000000
(1513194233.222818) can0 42F#7D04002E662902ED
(1513194233.223334) can0 43E#0061100000000000
(1513194233.231585) can0 167#72803610001A6500
(1513194233.232104) can0 202#045B680060991D77
(1513194233.232433) can0 204#C0007D02ED000000
(1513194233.236721) can0 315#0000000000000925
(1513194233.236952) can0 076#BE70EFEC001D6E00
(1513194233.237053) can0 20A#01B0000000004E20
(1513194233.237489) can0 2A4#1024898200007D00
(1513194233.237703) can0 2AC#3000000000000000
(1513194233.239059) can0 213#FFFF00040001FF40
(1513194233.239559) can0 216#3E61585A00000000
(1513194233.239929) can0 415#1D7EC46007EF07EF
(1513194233.240179) can0 416#5D00F10001000000
(1513194233.241183) can0 167#72803610001A6500
(1513194233.241440) can0 202#0459700060991D78
(1513194233.241685) can0 204#C0007D02EE000000
(1513194233.242433) can0 077#F7E717FF5001C101
(1513194233.244680) can0 3E7#0000000000000000
(1513194233.246821) can0 2A4#21007D00007D0000
(1513194233.247050) can0 04A#0200000000000000
(1513194233.247298) can0 04B#00C0D8D8D8D8C000
(1513194233.247546) can0 109#177331001D780000
(1513194233.247675) can0 3CA#EBC4000004000000
(1513194233.251810) can0 167#72803610001A6500
(1513194233.252047) can0 171#646C000000000000
(1513194233.252581) can0 202#0457780060991D79
(1513194233.252796) can0 204#C0007D02EE000000
(1513194233.253322) can0 42F#7D04002E662902ED
(1513194233.254820) can0 290#0000000000000000
(1513194233.256702) can0 2A4#227D00007D000221
(1513194233.256918) can0 048#000000000700E000
(1513194233.257170) can0 076#BE70EFFBFE1D6D00
(1513194233.257418) can0 20A#01B0000000004E20
(1513194233.257668) can0 412#0000000000000000
(1513194233.257917) can0 433#0000000000900000
(1513194233.258167) can0 2A1#FFFFFFFF00000000
(1513194233.258420) can0 470#019BC09800102000
(1513194233.258668) can0 4A2#0000000000000000
(1513194233.259421) can0 213#FFFF00040001FF40
(1513194233.259797) can0 216#587A727400000000
(1513194233.261054) can0 415#1D7AC86307EF07EF
(1513194233.261290) can0 167#72803610001A6500
(1513194233.261540) can0 202#0466000060991D79
(1513194233.261790) can0 204#C0007D02EE000000
(1513194233.266426) can0 18A#0020180114000000
(1513194233.266802) can0 2A4#2300021900022C00
(1513194233.268820) can0 04C#106FFFC000000000
(1513194233.271473) can0 156#9100000003000000
(1513194233.271786) can0 166#75200000E8330000
(1513194233.272057) can0 167#72803610001A6500
(1513194233.272418) can0 178#000002000E84CA83
(1513194233.272536) can0 179#1A650000BA6B095D
(1513194233.273293) can0 202#0465080060991D79
(1513194233.273542) can0 204#C0007D02EE000000
(1513194233.274032) can0 261#0000000000000000
(1513194233.274283) can0 262#0000000000000000
(1513194233.274534) can0 421#0200580000006400
(1513194233.274784) can0 42D#0002C9000000F000
(1513194233.275286) can0 43E#0061100000000000
(1513194233.276797) can0 2A4#24027D00023B0002
(1513194233.277155) can0 076#BE70EFEC051D6D00
(1513194233.277420) can0 20A#01B0000000004E20
(1513194233.277655) can0 3CA#EBC4000004000000
(1513194233.279160) can0 213#FFFF00040001FF40
(1513194233.279681) can0 216#73948C8E00000000
(1513194233.280181) can0 415#1D78CC6407EF07EF
(1513194233.281430) can0 167#72803610001A6500
(1513194233.281654) can0 171#646C000000000000
(1513194233.281904) can0 202#0464100060991D79
(1513194233.282154) can0 204#C0007D02EF000000
(1513194233.282431) can0 077#F7E617FF5001C101
(1513194233.282687) can0 42F#7D04002E662902ED
(1513194233.286690) can0 2A4#25030B0000000000
(1513194233.291538) can0 167#72803610001A6500
(1513194233.292044) can0 202#0464180060991D78
(1513194233.292427) can0 204#C0007D02EF000000
(1513194233.296673) can0 076#BE70EFDC081D6D00
(1513194233.296899) can0 20A#01B0000000004E20
(1513194233.299218) can0 213#FFFF00040001FF40
(1513194233.299648) can0 216#8DAEA6A800000000
(1513194233.300216) can0 415#1D7CD05F07F007F0
(1513194233.301464) can0 167#72803610001A6600
(1513194233.301667) can0 202#0463200060991D78
(1513194233.301917) can0 204#C0007D02EE000000
(1513194233.302154) can0 3A7#0E401A045F700000
(1513194233.305023) can0 45E#30000A0508000000
(1513194233.306562) can0 3AA#0022200000000000
(1513194233.306771) can0 346#000000030300C000
(1513194233.307019) can0 3AB#1200000040000000
(1513194233.307269) can0 348#0000000000000000
(1513194233.307532) can0 3CA#EBC4000004000000
(1513194233.307775) can0 412#0000000000000000
(1513194233.308027) can0 430#450035F608002401
(1513194233.308267) can0 434#43DC700020FFF3E3
(1513194233.311534) can0 167#72803610001A6600
(1513194233.311770) can0 171#646C000000000000
(1513194233.312396) can0 202#0461280060991D79
(1513194233.312519) can0 204#C0007D02EE000000
(1513194233.313020) can0 42F#7D04002E662902ED
(1513194233.316801) can0 076#BE70EFE4081D6E00
(1513194233.317014) can0 20A#01B0000000004E20
(1513194233.319150) can0 213#FFFF000400020040
(1513194233.319637) can0 216#A6C8C0C100000000
(1513194233.320166) can0 415#1D81D45907F007F0
(1513194233.321413) can0 167#72803710001A6600
(1513194233.321635) can0 202#045F300060991D7A
(1513194233.321902) can0 204#C0007D02ED000000
(1513194233.322137) can0 261#0000000000000000
(1513194233.322387) can0 077#F7E817FF5001C101
(1513194233.322635) can0 43E#0061100000000000
(1513194233.326385) can0 38D#2000000000000000
(1513194233.327398) can0 3B8#FFFFFFFF00000000
(1513194233.327760) can0 3E3#0001041380026400
(1513194233.328133) can0 3EC#C604140000100000
(1513194233.328538) can0 40A#C1014B3931485232
(1513194233.329284) can0 447#2100000004000000
(1513194233.331785) can0 167#72803710001A6600
(1513194233.332135) can0 076#BE72EFDC001D6F00
(1513194233.332389) can0 202#045D380060991D7B
(1513194233.332639) can0 204#C0007D02ED000000
(1513194233.332879) can0 3A6#0E401A045F700000
(1513194233.336519) can0 315#000000000000092D
(1513194233.336757) can0 20A#01B0000000004E20
(1513194233.337002) can0 2A4#1024898200007D00
(1513194233.337253) can0 3CA#EBC4000004000000
(1513194233.337629) can0 2AC#3000000000000000
(1513194233.339153) can0 213#FFFF00040001FF40
(1513194233.339653) can0 216#C0E1D9DC00000000
(1513194233.340153) can0 415#1D82D85707F007F0
(1513194233.340402) can0 416#5E00F00001000000
(1513194233.341402) can0 167#72803710001A6600
(1513194233.341636) can0 171#646C000000000000
(1513194233.341874) can0 202#045C400060991D7B
(1513194233.342124) can0 204#C0007D02EE000000
(1513194233.342408) can0 077#F7EA17FF5001C101
(1513194233.342624) can0 42F#7D04002E662902ED
(1513194233.344889) can0 45E#40520022D0000000
(1513194233.346637) can0 2A4#21007D00007D0000
(1513194233.346872) can0 076#BE72EFDC041D6F00
(1513194233.351760) can0 109#177331001D7B0000
(1513194233.351996) can0 167#72803710001A6600
(1513194233.352371) can0 202#045A480060991D7C
(1513194233.352496) can0 204#C0007D02EE000000
(1513194233.355522) can0 331#C0D305940A370C04
(1513194233.356694) can0 2A4#227D00007D000221
(1513194233.356879) can0 048#000000000700E000
(1513194233.357120) can0 14C#0800000100000000
(1513194233.357368) can0 20A#01B0000000004E20
(1513194233.357650) can0 3D0#0240059488000000
(1513194233.357924) can0 412#0000000000000000
(1513194233.358117) can0 433#0000000000900000
(1513194233.358368) can0 470#019BC09800102000
(1513194233.358617) can0 4A2#0000000000000000
(1513194233.359257) can0 213#FFFF000400020040
(1513194233.359743) can0 216#DAFBF3F600000000
(1513194233.360268) can0 2A1#FFFFFFFF00000000
(1513194233.361148) can0 415#1D7FDC5907F107F1
(1513194233.361366) can0 167#72803710001A6600
(1513194233.361616) can0 202#0458500060991D7D
(1513194233.361900) can0 204#C0007D02EE000000
(1513194233.362390) can0 076#BE72EFDC071D6F00
(1513194233.362614) can0 077#F7E917FF5001C101
(1513194233.365127) can0 2A0#FFFFFFFF00001E00
(1513194233.365497) can0 18A#0020180114000000
(1513194233.366623) can0 2A4#2300021900022C00
(1513194233.366997) can0 3CA#EBC4000004000000
(1513194233.368871) can0 04C#106FFFC000000000
(1513194233.371388) can0 156#9100000003000000
(1513194233.371775) can0 166#75200000E8330000
(1513194233.371984) can0 167#72803710001A6600
(1513194233.372386) can0 171#646C000000000000
(1513194233.372495) can0 178#000002000E84CA83
(1513194233.373013) can0 179#1A660000BA750964
(1513194233.373511) can0 202#0457580060991D7D
(1513194233.373734) can0 204#C0007D02EE000000
(1513194233.374260) can0 261#0000000000000000
(1513194233.374510) can0 262#0000000000000000
(1513194233.374734) can0 421#0200580000006400
(1513194233.374986) can0 42D#0002C9000000F000
(1513194233.375234) can0 42F#7D04002E662A02ED
(1513194233.375610) can0 43E#0061100000000000
(1513194233.375860) can0 3B4#401111FF25250000
(1513194233.376623) can0 2A4#24027D00023B0002
(1513194233.377108) can0 076#3E72CFDC061D6F00
(1513194233.377359) can0 20A#01B0000000004E20
(1513194233.379124) can0 213#FFFF000400020040
(1513194233.379610) can0 216#F4150D1000000000
(1513194233.380135) can0 415#1D7CE05B07F107F1
(1513194233.381135) can0 167#72803710001A6600
(1513194233.381357) can0 202#0457600060991D7C
(1513194233.381606) can0 204#C0007D02ED000000
(1513194233.382231) can0 077#F7E717FF5001C101
(1513194233.384996) can0 45E#01132B360D0C0300
(1513194233.386271) can0 3B5#0117010B010700FF
(1513194233.386628) can0 2A4#25030B0000000000
(1513194233.387629) can0 2C0#0778220101010000
(1513194233.391637) can0 167#72803710001A6600
(1513194233.391727) can0 076#BE73EFF4081D7000
(1513194233.392140) can0 202#0456680060991D7C
(1513194233.392370) can0 204#C0007D02ED000000
(1513194233.396647) can0 20A#01B0000000004E20
(1513194233.396867) can0 3CA#EBC4000004000000
(1513194233.399109) can0 213#FFFF000400020040
(1513194233.399608) can0 216#0D30272A00000000
(1513194233.400123) can0 415#1D7CE45A07F207F2
(1513194233.401374) can0 167#72803710001A6600
(1513194233.401607) can0 1E6#800CE80700000000
(1513194233.401857) can0 171#646C000000000000
(1513194233.401974) can0 202#0455700060991D7C
(1513194233.402357) can0 077#F7E617FF5001C101
(1513194233.402471) can0 204#C0007D02ED000000
(1513194233.402721) can0 42F#7D04002E662A02ED
(1513194233.406472) can0 287#0000000000000000
(1513194233.406720) can0 30A#D700000000000000
(1513194233.406969) can0 346#000000030300C000
(1513194233.407218) can0 076#BE73EFF4061D7200
(1513194233.407468) can0 348#0000000000000000
(1513194233.407717) can0 412#0000000000000000
(1513194233.407841) can0 42C#B030C480640004A9
(1513194233.408091) can0 430#450035F608002401
(1513194233.408341) can0 434#43DC700020FFF3E3
(1513194233.411482) can0 167#72803710001A6600
(1513194233.411989) can0 202#0455780060991D7B
(1513194233.412363) can0 204#C0007D02ED000000
(1513194233.413972) can0 168#0000000000000000
(1513194233.416616) can0 20A#01B0000000004E20
(1513194233.419149) can0 213#FFFF000400020040
(1513194233.419617) can0 216#274A404400000000
(1513194233.420147) can0 415#1D81E85407F207F2
(1513194233.421365) can0 167#72803710001A6600
(1513194233.421624) can0 202#0463000060991D7C
(1513194233.421847) can0 204#C0007D02EE000000
(1513194233.422102) can0 261#0000000000000000
(1513194233.422375) can0 076#BE73EFEC001D7200
(1513194233.422602) can0 077#F7E817FF5001C101
(1513194233.422852) can0 43E#0061100000000000
(1513194233.424851) can0 45E#115EFD224AE668A0
(1513194233.426227) can0 3B2#4048061210050002
(1513194233.426468) can0 3C3#60C0000000004000
(1513194233.427372) can0 3CA#EBC4000004000000
(1513194233.431582) can0 167#72803710001A6600
(1513194233.431831) can0 171#646C000000000000
(1513194233.432349) can0 202#0462080060991D7C
(1513194233.432598) can0 204#C0007D02EE000000
(1513194233.432965) can0 42F#7D04002E662A02ED
(1513194233.434982) can0 3E2#0000000080000000
(1513194233.435362) can0 3EA#0000000000006000
(1513194233.436480) can0 2A4#1024898200007D00
(1513194233.436732) can0 076#3E73CFEC001D7200
(1513194233.436983) can0 20A#01B0000000004E20
(1513194233.437604) can0 2AC#3000000000000000
(1513194233.439075) can0 213#FFFF00040001FF40
(1513194233.439604) can0 216#41645C5D00000000
(1513194233.440105) can0 415#1D80EC5407F307F3
(1513194233.440336) can0 416#5F00EF0001000000
(1513194233.441351) can0 167#72803710001A6600
(1513194233.441585) can0 58C#8C00FFFFFFFFFFFF
(1513194233.441824) can0 202#0460100060991D7D
(1513194233.442074) can0 204#C0007D02EE000000
(1513194233.442324) can0 077#F7EA17FF5001C101
(1513194233.446476) can0 2A4#21007D00007D0000
(1513194233.451648) can0 076#BE75EFE4021D7100
(1513194233.451828) can0 167#72803710001A6600
(1513194233.452387) can0 202#045F180060991D7D
(1513194233.452466) can0 204#C0007D02EE000000
(1513194233.454696) can0 192#B010000000000000
(1513194233.454943) can0 215#0000000000000000
(1513194233.455342) can0 222#4000000000000000
(1513194233.455591) can0 227#0000000000000A00
(1513194233.455842) can0 229#0000030000000000
(1513194233.456075) can0 290#0000000000000000
(1513194233.456340) can0 2D0#7704100700000000
(1513194233.456591) can0 2A4#227D00007D000221
(1513194233.456840) can0 048#000000000700E000
(1513194233.457067) can0 109#177331001D7D0000
(1513194233.457315) can0 20A#01B0000000004E20
(1513194233.457566) can0 2D1#0000000000000000
(1513194233.457854) can0 3CA#EBC4000004000000
(1513194233.458090) can0 2D2#0000000000000000
(1513194233.458340) can0 412#0000000000000000
(1513194233.458589) can0 2E0#000F000000000000
(1513194233.458840) can0 433#0000000000900000
(1513194233.459071) can0 2E3#0200000000000000
(1513194233.459327) can0 213#FFFF00040001FF40
(1513194233.459570) can0 2EE#000A050040400000
(1513194233.459821) can0 216#5B7D757700000000
(1513194233.460068) can0 320#00000000000FFE00
(1513194233.460317) can0 2A1#FFFFFFFF00000000
(1513194233.460566) can0 321#0000000000000000
(1513194233.460817) can0 470#019BC09800102000
(1513194233.461066) can0 34E#0000000000000000
(1513194233.461327) can0 167#72803710001A6600
(1513194233.461440) can0 35B#000000FE00000000
(1513194233.461690) can0 171#646C000000000000
(1513194233.461953) can0 362#0000000000000000
(1513194233.462315) can0 202#045E200060991D7D
(1513194233.462438) can0 3DA#0264000000000000
(1513194233.462689) can0 204#C0007D02EC000000
(1513194233.462939) can0 3F0#0000000000000000
(1513194233.463190) can0 415#1D7EF05507F307F3
(1513194233.463439) can0 3F1#0000000000000001
(1513194233.463689) can0 42F#7D04002E662902ED
(1513194233.463938) can0 4A2#0000000000000000
(1513194233.464690) can0 18A#0020180114000000
(1513194233.464936) can0 45E#27B21902F854A800
(1513194233.466573) can0 2A4#2300021900022C00
(1513194233.466821) can0 076#BE75EFDC071D7000
(1513194233.468696) can0 04C#106FFFC000000000
(1513194233.471311) can0 156#9100000003000000
(1513194233.471835) can0 166#75200000E8330000
(1513194233.472068) can0 167#72803710001A6600
(1513194233.472318) can0 178#000001FF0E84CA83
(1513194233.472693) can0 179#1A660000BA80096D
(1513194233.473208) can0 202#045D280060991D7D
(1513194233.473444) can0 204#C0007D02EC000000
(1513194233.473960) can0 261#0000000000000000
(1513194233.474341) can0 262#0000000000000000
(1513194233.474472) can0 421#0200580000006400
(1513194233.474715) can0 42D#0002C9000000F000
(1513194233.475215) can0 43E#0061100000000000
(1513194233.476458) can0 2A4#24027D00023B0002
(1513194233.476957) can0 20A#01B0000000004E20
(1513194233.479082) can0 213#FFFF000400020040
(1513194233.479581) can0 216#76978F9100000000
(1513194233.480081) can0 415#1D78F45A07F407F4
(1513194233.481330) can0 167#72803710001A6600
(1513194233.481586) can0 202#045D300060991D7C
(1513194233.481803) can0 204#C0007D02EC000000
(1513194233.482054) can0 076#BE75EFF4081D7100
(1513194233.486425) can0 2A4#25030B0000000000
(1513194233.486817) can0 3CA#EBC4000004000000
(1513194233.491487) can0 167#72803710001A6600
(1513194233.491684) can0 171#646C000000000000
(1513194233.492326) can0 202#045D380060991D7B
(1513194233.492423) can0 204#C0007D02EC000000
(1513194233.492952) can0 42F#7D04002E662A02ED
(1513194233.496561) can0 076#3E75CFF4081D7100
(1513194233.496806) can0 20A#01B0000000004E20
(1513194233.499072) can0 213#FFFF000400020040
(1513194233.499572) can0 216#90B1A9AB00000000
(1513194233.500072) can0 415#1D79F85807F407F4
(1513194233.501322) can0 167#72803710001A6600
(1513194233.501549) can0 202#045D400060991D7A
(1513194233.501814) can0 204#C0007D02EC000000
(1513194233.502044) can0 3A7#0E401A045F700000
(1513194233.502331) can0 077#F7EB17FF5001C101
(1513194233.504945) can0 45E#715EFD214AE667B0
(1513194233.506317) can0 346#000000030300C000
(1513194233.506547) can0 3AA#0022200000000000
(1513194233.506793) can0 348#0000000000000000
(1513194233.507044) can0 3AB#1200000040000000
(1513194233.507301) can0 412#0000000000000000
(1513194233.507551) can0 430#450035F608002401
(1513194233.507792) can0 434#43DC700020FFF3E3
(1513194233.511553) can0 167#72803710001A6600
(1513194233.512039) can0 202#045C480060991D7A
(1513194233.512299) can0 204#C0007D02EC000000
(1513194233.512549) can0 076#BE76EFFC021D7200
(1513194233.516451) can0 20A#01B0000000004E20
(1513194233.516683) can0 3CA#EBC4000004000000
(1513194233.519060) can0 213#FFFF00040001FF40
(1513194233.519546) can0 216#AACBC3C400000000
(1513194233.520042) can0 415#1D7FFC5107F507F5
(1513194233.521293) can0 167#72803710001A6600
(1513194233.521541) can0 171#646C000000000000
(1513194233.521792) can0 202#045B500060991D7A
(1513194233.522039) can0 204#C0007D02EC000000
(1513194233.522537) can0 261#0000000000000000
(1513194233.522807) can0 42F#7D04002E662A02ED
(1513194233.523182) can0 43E#0061100000000000
(1513194233.526444) can0 40A#C1023130373639FF
(1513194233.527194) can0 076#BE77EFE4021D7300
(1513194233.527818) can0 169#0082C00000000000
(1513194233.531441) can0 167#72803710001A6600
(1513194233.531930) can0 202#0459580060991D7B
(1513194233.532285) can0 3A6#0E401A045F700000
(1513194233.532424) can0 204#C0007D02EC000000
(1513194233.536306) can0 315#0000000000000935
(1513194233.536549) can0 20A#01B0000000004E20
(1513194233.536798) can0 2A4#1024898200007D00
(1513194233.537563) can0 2AC#3000000000000000
(1513194233.538938) can0 213#FFFF00040001FF40
(1513194233.539437) can0 216#C3E5DCDE00000000
(1513194233.539938) can0 415#1D7EC06107F607F6
(1513194233.540170) can0 416#5000FE0001000000
(1513194233.541185) can0 167#72803710001A6600
(1513194233.541420) can0 202#0458600060991D7B
(1513194233.541673) can0 204#C0007D02EB000000
(1513194233.542029) can0 076#BE78EFD4021D7200
(1513194233.542276) can0 077#F7EA17FF5001C101
(1513194233.544791) can0 45E#815EFD914AE66670
(1513194233.546410) can0 2A4#21007D00007D0000
(1513194233.546672) can0 3CA#EBC4000004000000
(1513194233.551811) can0 167#72803710001A6600
(1513194233.552046) can0 171#646C000000000000
(1513194233.552422) can0 202#0457680060991D7B
(1513194233.552795) can0 204#C0007D02EB000000
(1513194233.553170) can0 42F#7D04002E662902ED
(1513194233.554313) can0 5C6#C600FFFFFFFFFFFF
(1513194233.556310) can0 2A4#227D00007D000221
(1513194233.556654) can0 048#000000000700E000
(1513194233.556779) can0 076#3E78CFD4021D7200
(1513194233.557028) can0 14C#0800000100000000
(1513194233.557278) can0 20A#01B0000000004E20
(1513194233.557529) can0 412#0000000000000000
(1513194233.557778) can0 433#0000000000900000
(1513194233.558029) can0 470#019BC09800102000
(1513194233.558279) can0 4A2#0000000000000000
(1513194233.559266) can0 213#FFFF00040001FF40
(1513194233.559791) can0 216#DDFEF6F800000000
(1513194233.560291) can0 2A1#FFFFFFFF00000000
(1513194233.561168) can0 415#1D7CC46207F607F6
(1513194233.561401) can0 167#72803710001A6600
(1513194233.561650) can0 202#0456700060991D7B
(1513194233.561997) can0 204#C0007D02EB000000
(1513194233.562149) can0 077#F7EC17FF5001C101
(1513194233.562401) can0 109#175B31001D7B0000
(1513194233.564041) can0 18A#0020180114000000
(1513194233.566416) can0 2A4#2300021900022C00
(1513194233.568799) can0 04C#106FFFC000000000
(1513194233.571297) can0 156#9100000003000000
(1513194233.571766) can0 166#75200000E8330000
(1513194233.571888) can0 167#72803710001A6600
(1513194233.572264) can0 076#BE79EFDC071D7100
(1513194233.572389) can0 178#000001FF0E84CA83
(1513194233.572640) can0 179#1A660000BA8A0977
(1513194233.573137) can0 202#0455780060991D7B
(1513194233.573390) can0 204#C0007D02EB000000
(1513194233.574049) can0 261#0000000000000000
(1513194233.574138) can0 262#0000000000000000
(1513194233.574389) can0 221#8A10080000000000
(1513194233.574638) can0 421#0200580000006400
(1513194233.574889) can0 224#A480200000000000
(1513194233.575138) can0 42D#0002C9000000F000
(1513194233.575389) can0 228#7032EE1092469978
(1513194233.575638) can0 43E#0061100000000000
(1513194233.575763) can0 331#C0D305940A370C04
(1513194233.576390) can0 2A4#24027D00023B0002
(1513194233.577014) can0 20A#01B0000000004E20
(1513194233.577263) can0 3CA#EBC4000004000000
(1513194233.579015) can0 213#FFFF00040001FF40
(1513194233.579530) can0 216#F718101200000000
(1513194233.580016) can0 415#1D73C86A07F707F7
(1513194233.581014) can0 167#72803710001A6600
(1513194233.581263) can0 171#646C000000000000
(1513194233.581512) can0 202#0466000060991D79
(1513194233.581759) can0 204#C0007D02ED000000
(1513194233.582008) can0 077#F7ED17FF5001C101
(1513194233.582257) can0 42F#7D04002E662902ED
(1513194233.586254) can0 2A4#25030B0000000000
(1513194233.586503) can0 076#BE79EFEC061D7200
(1513194233.591379) can0 167#72803710001A6600
(1513194233.591875) can0 202#0466080060991D78
(1513194233.592249) can0 204#C0007D02ED000000
(1513194233.595627) can0 3D8#0000000080C53030
(1513194233.595872) can0 3CD#0000000000000000
(1513194233.596497) can0 20A#01B0000000004E20
(1513194233.598996) can0 213#FFFF00040001FF40
(1513194233.599495) can0 216#11332A2D00000000
(1513194233.599994) can0 415#1D79CC6307F707F7
(1513194233.601248) can0 167#72803710001A6600
(1513194233.601497) can0 202#0465100060991D78
(1513194233.601744) can0 204#C0007D02ED000000
(1513194233.601995) can0 076#BE79EFF4041D7200
(1513194233.605748) can0 51E#1E04000000000000
(1513194233.606241) can0 287#0000000000000000
(1513194233.606365) can0 30A#D700000000000000
(1513194233.606614) can0 3CA#EBC4000004000000
(1513194233.606864) can0 346#000000030300C000
(1513194233.607239) can0 412#0000000000000000
(1513194233.607365) can0 348#0000000000000000
(1513194233.607614) can0 430#450035F608002401
(1513194233.607864) can0 434#43DC700020FFF3E3
(1513194233.611396) can0 2D5#0304000001924800
(1513194233.611614) can0 167#72803710001A6600
(1513194233.611739) can0 171#646C000000000000
(1513194233.611997) can0 223#100001C001000000
(1513194233.612250) can0 202#0464180060991D78
(1513194233.612501) can0 204#C0007D02ED000000
(1513194233.612749) can0 2D6#0000000000000000
(1513194233.612998) can0 42F#7D04002E662A02ED
(1513194233.613237) can0 2D7#0000000000000000
(1513194233.613498) can0 2D8#0814170000000000
(1513194233.613738) can0 2D9#0877773038309060
(1513194233.613988) can0 2DC#1F00000000000000
(1513194233.614239) can0 2DE#0300000000000000
(1513194233.614497) can0 2F2#0000000000000000
(1513194233.614871) can0 2F3#0000000000000000
(1513194233.615121) can0 2F5#3008000000000000
(1513194233.615371) can0 2F6#0000000000000000
(1513194233.615620) can0 2F7#0C02000000000400
(1513194233.615861) can0 2F8#0000000000000000
(1513194233.616109) can0 2F9#5951540000000000
(1513194233.616361) can0 3E8#4000000000000000
(1513194233.616610) can0 076#3E79CFF4041D7200
(1513194233.616860) can0 20A#01B0000000004E20
(1513194233.617110) can0 4D0#0000000000000000
(1513194233.619123) can0 213#FFFF00040001FF40
(1513194233.619508) can0 216#2A4D444700000000
(1513194233.619998) can0 415#1D80D05B07F807F8
(1513194233.620997) can0 167#72803710001A6600
(1513194233.621259) can0 202#0464200060991D77
(1513194233.621493) can0 2DA#002A022400000000
(1513194233.621734) can0 204#C0007D02EB000000
(1513194233.621983) can0 077#F7EF17FF5001C101
(1513194233.622233) can0 261#0000000000000000
(1513194233.622484) can0 2DB#0000000000000000
(1513194233.622732) can0 43E#0061100000000000
(1513194233.622983) can0 2E6#0000000000000000
(1513194233.631357) can0 076#BE7AEFDC001D7200
(1513194233.631632) can0 167#72803710001A6600
(1513194233.632005) can0 202#0461280060991D79
(1513194233.632237) can0 204#C0007D02EB000000
(1513194233.636131) can0 315#0000000000000941
(1513194233.636379) can0 2A4#1024898200007D00
(1513194233.636637) can0 20A#01B0000000004E20
(1513194233.636851) can0 3CA#EBC4000004000000
(1513194233.637492) can0 2AC#3000000000000000
(1513194233.638976) can0 213#FFFF00040001FF40
(1513194233.639486) can0 216#44675D6100000000
(1513194233.639984) can0 415#1D7CD45E07F907F9
(1513194233.640235) can0 416#5100FD0001000000
(1513194233.641248) can0 167#72803710001A6600
(1513194233.641512) can0 171#646C000000000000
(1513194233.641750) can0 202#0460300060991D79
(1513194233.641976) can0 077#F7F117FF5001C101
(1513194233.642224) can0 204#C0007D02EC000000
(1513194233.642473) can0 42F#7D04002E662A02ED
(1513194233.646250) can0 2A4#21007D00007D0000
(1513194233.646607) can0 076#BE7AEFE4001D7000
(1513194233.651621) can0 167#72803710001A6600
(1513194233.652249) can0 202#045F380060991D79
(1513194233.652470) can0 204#C0007D02EC000000
(1513194233.654624) can0 290#0000000000000000
(1513194233.656255) can0 2A4#227D00007D000221
(1513194233.656470) can0 048#000000000700E000
(1513194233.656731) can0 20A#01B0000000004E20
(1513194233.656980) can0 412#0000000000000000
(1513194233.657250) can0 42C#B030C480640004A8
(1513194233.657475) can0 433#0000000000900000
(1513194233.657748) can0 470#019BC09800102000
(1513194233.657965) can0 4A2#0000000000000000
(1513194233.659099) can0 213#FFFF00040001FF40
(1513194233.659598) can0 216#5E81777A00000000
(1513194233.660099) can0 2A1#FFFFFFFF00000000
(1513194233.660990) can0 415#1D7DD85C07F907F9
(1513194233.661240) can0 167#72803710001A6600
(1513194233.661492) can0 202#045E400060991D79
(1513194233.661723) can0 204#C0007D02EC000000
(1513194233.661995) can0 076#BE7AEFDC0B1D7000
(1513194233.662245) can0 077#F7F217FF5001C101
(1513194233.663341) can0 18A#0020180114000000
(1513194233.666240) can0 2A4#2300021900022C00
(1513194233.666496) can0 109#176331001D790000
(1513194233.666737) can0 3CA#EBC4000004000000
(1513194233.668611) can0 04C#106FFFC000000000
(1513194233.671210) can0 156#9100000003000000
(1513194233.671710) can0 166#75200000E8330000
(1513194233.671960) can0 167#72803710001A6600
(1513194233.672209) can0 171#646C000000000000
(1513194233.672727) can0 178#000002000E84CA83
(1513194233.672982) can0 179#1A660000BA95097E
(1513194233.673351) can0 202#045D480060991D79
(1513194233.673594) can0 204#C0007D02EC000000
(1513194233.674220) can0 261#0000000000000000
(1513194233.674336) can0 262#0000000000000000
(1513194233.674594) can0 421#0200580000006400
(1513194233.674844) can0 42D#0002C9000000F000
(1513194233.675093) can0 42F#7D04002E662A02ED
(1513194233.675593) can0 43E#0061100000000000
(1513194233.676211) can0 2A4#24027D00023B0002
(1513194233.676846) can0 076#3E7ACFDC0A1D7000
(1513194233.677092) can0 20A#01B0000000004E20
(1513194233.679081) can0 213#FFFF00040001FF40
(1513194233.679581) can0 216#799A919400000000
(1513194233.679956) can0 415#1D77DC6107FA07FA
(1513194233.681095) can0 167#72803710001A6600
(1513194233.681340) can0 202#045B500060991D7A
(1513194233.681579) can0 204#C0007D02ED000000
(1513194233.681704) can0 077#F7F117FF5001C101
(1513194233.686222) can0 2A4#25030B0000000000
(1513194233.691360) can0 076#BE7CEFDC061D7100
(1513194233.691469) can0 167#72803710001A6700
(1513194233.691978) can0 202#045B580060991D79
(1513194233.692201) can0 204#C0007D02ED000000
(1513194233.694954) can0 5E2#E200FFFFFFFFFFFF
(1513194233.696328) can0 20A#01B0000000004E20
(1513194233.696574) can0 3CA#EBC4000004000000
(1513194233.699091) can0 213#FFFF00040001FF40
(1513194233.699447) can0 216#93B4ABAE00000000
(1513194233.699948) can0 415#1D7FE05807FB07FB
(1513194233.700196) can0 3A7#0E401A045F700000
(1513194233.700956) can0 167#72803710001A6700
(1513194233.701197) can0 171#646C000000000000
(1513194233.701446) can0 202#0459600060991D7A
(1513194233.701697) can0 204#C0007D02EC000000
(1513194233.701967) can0 077#F7F217FF5001C101
(1513194233.702194) can0 42F#7D04002E662A02ED
(1513194233.703194) can0 188#4000000000000000
(1513194233.706068) can0 346#000000030300C000
(1513194233.706331) can0 3AA#0022200000000000
(1513194233.706578) can0 076#BE7DEFEC041D7200
(1513194233.706849) can0 348#0000000000000000
(1513194233.707077) can0 3AB#1200000040000000
(1513194233.707324) can0 412#0000000000000000
(1513194233.707583) can0 430#450035F608002401
(1513194233.707832) can0 434#43DC700020FFF3E3
(1513194233.711455) can0 167#72803710001A6700
(1513194233.711976) can0 202#0458680060991D7A
(1513194233.712197) can0 204#C0007D02EC000000
(1513194233.716327) can0 20A#01B0000000004E20
(1513194233.718979) can0 213#FFFF00040001FF40
(1513194233.719449) can0 216#ADCEC6C800000000
(1513194233.719965) can0 415#1D81E45507FB07FB
(1513194233.721214) can0 167#72803710001A6700
(1513194233.721466) can0 202#0456700060991D7B
(1513194233.721692) can0 076#BE7DEFE4001D7200
(1513194233.721965) can0 077#F7F417FF5001C101
(1513194233.722192) can0 204#C0007D02EC000000
(1513194233.722448) can0 261#0000000000000000
(1513194233.723199) can0 43E#0061100000000000
(1513194233.726326) can0 40A#C104014107F670C1
(1513194233.726711) can0 3CA#EBC4000004000000
(1513194233.731434) can0 167#72803710001A6700
(1513194233.731681) can0 171#646C000000000000
(1513194233.731929) can0 3A6#0E401A045F700000
(1513194233.732178) can0 202#0454780060991D7C
(1513194233.732430) can0 204#C0007D02EC000000
(1513194233.732808) can0 42F#7D04002E662A02ED
(1513194233.735957) can0 315#000000000000093D
(1513194233.736187) can0 2A4#1024898200007D00
(1513194233.736458) can0 076#3E7DCFE4001D7200
(1513194233.736687) can0 20A#01B0000000004E20
(1513194233.737452) can0 2AC#3000000000000000
(1513194233.739081) can0 213#FFFF00040001FF40
(1513194233.739577) can0 216#C6E8E0E100000000
(1513194233.740078) can0 415#1D7FE85607FC07FC
(1513194233.740709) can0 416#5200FC0001000000
(1513194233.741091) can0 167#72803810001A6700
(1513194233.741320) can0 202#0463000060991D7C
(1513194233.741573) can0 204#C0007D02ED000000
(1513194233.746245) can0 2A4#21007D00007D0000
(1513194233.751198) can0 076#BE7FEFEC061D7100
(1513194233.751704) can0 167#72803810001A6700
(1513194233.752241) can0 202#0462080060991D7C
(1513194233.752444) can0 204#C0007D02ED000000
(1513194233.756240) can0 2A4#227D00007D000221
(1513194233.756291) can0 048#000000000700E000
(1513194233.756565) can0 14C#0800000100000000
(1513194233.756814) can0 20A#01B0000000004E20
(1513194233.757064) can0 3CA#EBC4000004000000
(1513194233.757302) can0 412#0000000000000000
(1513194233.757567) can0 433#0000000000900000
(1513194233.757815) can0 470#019BC09800102000
(1513194233.758077) can0 4A2#0000000000000000
(1513194233.759064) can0 213#FFFF00040001FF40
(1513194233.759540) can0 216#E001F9FB00000000
(1513194233.760062) can0 2A1#FFFFFFFF00000000
(1513194233.760815) can0 415#1D81EC5307FD07FD
(1513194233.761062) can0 167#72803810001A6700
(1513194233.761311) can0 171#646C000000000000
(1513194233.761561) can0 202#0461100060991D7C
(1513194233.761811) can0 204#C0007D02ED000000
(1513194233.762187) can0 18A#0020180114000000
(1513194233.762688) can0 42F#7D04002E662A02ED
(1513194233.766191) can0 2A4#2300021900022C00
(1513194233.766435) can0 076#BE80EFE40D1D7200
(1513194233.768549) can0 04C#106FFFC000000000
(1513194233.771232) can0 156#9100000003000000
(1513194233.771707) can0 166#75200000E8330000
(1513194233.771930) can0 167#72803810001A6700
(1513194233.772202) can0 109#176B31001D7C0000
(1513194233.772313) can0 178#000002000E84CA83
(1513194233.772543) can0 179#1A670000BA9F0987
(1513194233.773059) can0 202#045F180060991D7D
(1513194233.773293) can0 204#C0007D02ED000000
(1513194233.773810) can0 261#0000000000000000
(1513194233.774190) can0 262#0000000000000000
(1513194233.774292) can0 421#0200580000006400
(1513194233.774561) can0 42D#0002C9000000F000
(1513194233.775058) can0 43E#0061100000000000
(1513194233.776183) can0 2A4#24027D00023B0002
(1513194233.776569) can0 20A#01B0000000004E20
(1513194233.778913) can0 213#FFFF000400020040
(1513194233.779444) can0 216#FA1D131500000000
(1513194233.779942) can0 415#1D7FF05407FE07FE
(1513194233.780945) can0 167#72803810001A6800
(1513194233.781178) can0 202#045E200060991D7D
(1513194233.781428) can0 204#C0007D02EC000000
(1513194233.781665) can0 076#BE81EFF4061D7400
(1513194233.781992) can0 077#F7F517FF5001C101
(1513194233.786179) can0 2A4#25030B0000000000
(1513194233.786302) can0 3CA#EBC4000004000000
(1513194233.791477) can0 167#72803810001A6800
(1513194233.791677) can0 171#646C000000000000
(1513194233.792161) can0 202#045D280060991D7D
(1513194233.792411) can0 204#C0007D02EC000000
(1513194233.792787) can0 42F#7D04002E662A02ED
(1513194233.796162) can0 076#3E81CFF4061D7400
(1513194233.796404) can0 20A#01B0000000004E20
(1513194233.799179) can0 213#FFFF000400020040
(1513194233.799533) can0 216#14362D2F00000000
(1513194233.800050) can0 415#1D85F44D07FE07FE
(1513194233.801062) can0 167#72803810001A6800
(1513194233.801296) can0 202#045C300060991D7D
(1513194233.801545) can0 204#C0007D02ED000000
(1513194233.801797) can0 077#F7F717FF5001C101
(1513194233.805921) can0 287#0000000000000000
(1513194233.806166) can0 30A#D700000000000000
(1513194233.806415) can0 412#0000000000000000
(1513194233.806666) can0 346#000000030300C000
(1513194233.806921) can0 348#0000000000000000
(1513194233.807146) can0 430#450035F608002401
(1513194233.807394) can0 434#43DC700020FFF3E3
(1513194233.811423) can0 167#72803810001A6800
(1513194233.811915) can0 202#045A380060991D7E
(1513194233.812163) can0 076#BE83EFFC001D7500
(1513194233.812268) can0 204#C0007D02ED000000
(1513194233.816180) can0 20A#01B0000000004E20
(1513194233.816412) can0 3CA#EBC4000004000000
(1513194233.819090) can0 213#FFFF000400020040
(1513194233.819407) can0 216#2E50474800000000
(1513194233.819965) can0 415#1D82F84F07FF07FF
(1513194233.820934) can0 167#72803810001A6800
(1513194233.821142) can0 171#646C000000000000
(1513194233.821413) can0 202#0459400060991D7E
(1513194233.821663) can0 077#F7F817FF5001C101
(1513194233.822060) can0 204#C0007D02EE000000
(1513194233.822413) can0 261#0000000000000000
(1513194233.822912) can0 42F#7D04002E662A02ED
(1513194233.823267) can0 43E#0061100000000000
(1513194233.826392) can0 076#BE84EFF4021D7500
(1513194233.826642) can0 3B8#FFFFFFFF00000000
(1513194233.831408) can0 167#72803810001A6800
(1513194233.831894) can0 202#0458480060991D7E
(1513194233.832137) can0 204#C0007D02EE000000
(1513194233.835942) can0 315#0000000000000945
(1513194233.836141) can0 2A4#1024898200007D00
(1513194233.836409) can0 20A#01B0000000004E20
(1513194233.836657) can0 318#000000000012B600
(1513194233.837438) can0 2AC#3000000000000000
(1513194233.838782) can0 213#FFFF000400020040
(1513194233.839265) can0 216#476A616400000000
(1513194233.839765) can0 415#1D82FC4E08000800
(1513194233.840013) can0 416#5300FB0001000000
(1513194233.841005) can0 167#72803810001A6800
(1513194233.841268) can0 202#0456500060991D7F
(1513194233.841518) can0 204#C0007D02EE000000
(1513194233.841768) can0 076#BE86EFE4081D7500
(1513194233.842017) can0 077#F7F917FF5001C101
(1513194233.846017) can0 2A4#21007D00007D0000
(1513194233.846265) can0 3CA#EBC4000004000000
(1513194233.851654) can0 167#72803810001A6800
(1513194233.851889) can0 171#646C000000000000
(1513194233.852372) can0 202#0455580060991D7F
(1513194233.852637) can0 204#C0007D02EE000000
(1513194233.853120) can0 42F#7D04002E662A02ED
(1513194233.854631) can0 290#0000000000000000
(1513194233.855998) can0 2A4#227D00007D000221
(1513194233.856261) can0 048#000000000700E000
(1513194233.856504) can0 076#3E86CFE4081D7500
(1513194233.856748) can0 20A#01B0000000004E20
(1513194233.856873) can0 412#0000000000000000
(1513194233.857129) can0 433#0000000000900000
(1513194233.857378) can0 470#019BC09800102000
(1513194233.857627) can0 4A2#0000000000000000
(1513194233.859141) can0 213#FFFF000400020040
(1513194233.859502) can0 216#63847A7D00000000
(1513194233.860001) can0 2A1#FFFFFFFF00000000
(1513194233.861126) can0 167#72803810001A6800
(1513194233.861241) can0 202#0454600060991D7F
(1513194233.861615) can0 077#F7FC17FF5001C101
(1513194233.861880) can0 18A#0020180114000000
(1513194233.862125) can0 204#C0007D02ED000000
(1513194233.862364) can0 3E5#0000000080000000
(1513194233.862615) can0 415#1D84C05B08010801
(1513194233.864627) can0 462#63EA90DE34F06248
(1513194233.864864) can0 464#9A80204D922F1020
(1513194233.865114) can0 465#63EA90DE34F06248
(1513194233.865363) can0 467#9A80204D922F1020
(1513194233.865988) can0 2A4#2300021900022C00
(1513194233.868501) can0 04C#106FFFC000000000
(1513194233.871137) can0 156#9100000003000000
(1513194233.871645) can0 166#75200000E8330000
(1513194233.871860) can0 076#BE87EFF4071D7600
(1513194233.872120) can0 167#72803810001A6800
(1513194233.872369) can0 178#000001FF0E84CA83
(1513194233.872609) can0 179#1A680000BAAA0991
(1513194233.873109) can0 202#0452680060991D80
(1513194233.873232) can0 204#C0007D02ED000000
(1513194233.873746) can0 261#0000000000000000
(1513194233.874139) can0 262#0000000000000000
(1513194233.874232) can0 421#0200580000006400
(1513194233.874483) can0 42D#0002C9000000F000
(1513194233.874997) can0 43E#0061100000000000
(1513194233.875997) can0 2A4#24027D00023B0002
(1513194233.876497) can0 109#176B31001D800000
(1513194233.876770) can0 20A#01B0000000004E20
(1513194233.877136) can0 3CA#EBC4000004000000
(1513194233.879008) can0 213#FFFF000400020040
(1513194233.879384) can0 216#7C9E949700000000
(1513194233.879887) can0 415#1D7FC45F08020802
(1513194233.880883) can0 167#72803810001A6800
(1513194233.881141) can0 171#646C000000000000
(1513194233.881354) can0 202#0452700060991D7F
(1513194233.881606) can0 077#F7FE17FF5001C101
(1513194233.881856) can0 204#C0007D02EC000000
(1513194233.882371) can0 42F#7D04002E662A02ED
(1513194233.885993) can0 2A4#25030B0000000000
(1513194233.886230) can0 3B5#0117010B010700FF
(1513194233.886353) can0 076#BE87F014041D7700
(1513194233.891358) can0 167#72803810001A6800
(1513194233.891857) can0 202#0451780060991D7F
(1513194233.892108) can0 204#C0007D02EC000000
(1513194233.896127) can0 20A#01B0000000004E20
(1513194233.898907) can0 213#FFFF000400020040
(1513194233.899375) can0 216#96B7AEB100000000
(1513194233.899844) can0 415#1D86C85708020802
(1513194233.900125) can0 3A7#0E401A045F700000
(1513194233.901108) can0 167#72803810001A6800
(1513194233.901468) can0 076#BE88EFFC041D7800
(1513194233.901750) can0 077#F7FF17FF5001C101
(1513194233.901967) can0 202#045F000060991D80
(1513194233.902218) can0 204#C0007D02EE000000
(1513194233.904606) can0 463#98ACE42A18B03800
(1513194233.904857) can0 466#98ACE42A18B03800
(1513194233.905743) can0 346#000000030300C000
(1513194233.906116) can0 3CA#EBC4000004000000
(1513194233.906215) can0 348#0000000000000000
(1513194233.906465) can0 3AA#0022200000000000
(1513194233.906731) can0 412#0000000000000000
(1513194233.907106) can0 3AB#1200000040000000
(1513194233.907226) can0 42C#B430C480640004A8
(1513194233.907474) can0 430#450035F608002401
(1513194233.907731) can0 434#43DC700020FFF3E3
(1513194233.911363) can0 167#72803810001A6800
(1513194233.911597) can0 171#646C000000000000
(1513194233.912097) can0 202#045E080060991D80
(1513194233.912350) can0 204#C0007D02EE000000
(1513194233.912716) can0 42F#7D04002E662A02ED
(1513194233.916091) can0 076#3E88CFFC041D7800
(1513194233.916339) can0 20A#01B0000000004E20
(1513194233.919099) can0 213#FFFF000400020040
(1513194233.919479) can0 216#B0D1C8CB00000000
(1513194233.920112) can0 415#1D8CCC5008030803
(1513194233.921111) can0 167#72803810001A6800
(1513194233.921471) can0 202#045C100060991D81
(1513194233.921720) can0 204#C0007D02EF000000
(1513194233.922219) can0 261#0000000000000000
(1513194233.922987) can0 43E#0061100000000000
(1513194233.926241) can0 3B2#4048061210050002
(1513194233.926462) can0 40A#C110409060250000
(1513194233.931363) can0 167#72803810001A6800
(1513194233.932108) can0 202#045A180060991D82
(1513194233.932333) can0 204#C0007D02EF000000
(1513194233.933731) can0 3A6#0E401A045F700000
(1513194233.935729) can0 3E1#8000010701800000
(1513194233.935963) can0 315#000000000000094D
(1513194233.936213) can0 076#BE88EFFC021D7800
(1513194233.936338) can0 20A#01B0000000004E20
(1513194233.936588) can0 2A4#1024898200007D00
(1513194233.936837) can0 3CA#EBC4000004000000
(1513194233.937352) can0 2AC#3000000000000000
(1513194233.938712) can0 213#FFFF000400020040
(1513194233.939228) can0 216#CAECE3E500000000
(1513194233.939729) can0 415#1D88D05308040804
(1513194233.939961) can0 416#5400FA0001000000
(1513194233.940976) can0 167#72803810001A6800
(1513194233.941210) can0 171#646C000000000000
(1513194233.941460) can0 077#F80117FF5001C101
(1513194233.941710) can0 202#0458200060991D83
(1513194233.941958) can0 204#C0007D02ED000000
(1513194233.942358) can0 42F#7D04002E662A02ED
(1513194233.945841) can0 2A4#21007D00007D0000
(1513194233.951613) can0 167#72803810001A6800
(1513194233.952089) can0 202#0457280060991D83
(1513194233.952339) can0 204#C0007D02ED000000
(1513194233.955823) can0 2A4#227D00007D000221
(1513194233.956089) can0 048#000000000700E000
(1513194233.956336) can0 076#BE88EFFC001D7700
(1513194233.956587) can0 14C#0800000100000000
(1513194233.956837) can0 20A#01B0000000004E20
(1513194233.957087) can0 412#0000000000000000
(1513194233.957327) can0 433#0000000000900000
(1513194233.957571) can0 470#019BC09800102000
(1513194233.957820) can0 4A2#0000000000000000
(1513194233.959093) can0 213#FFFF000400020040
(1513194233.959586) can0 216#E306FDFE00000000
(1513194233.960086) can0 2A1#FFFFFFFF00000000
(1513194233.961101) can0 167#72803810001A6800
(1513194233.961214) can0 18A#0020180114000000
(1513194233.961475) can0 077#F80017FF5001C101
(1513194233.961709) can0 202#0455300060991D84
(1513194233.962073) can0 204#C0007D02ED000000
(1513194233.962467) can0 415#1D81D45908050805
(1513194233.965839) can0 2A4#2300021900022C00
(1513194233.966234) can0 3CA#EBC4000004000000
(1513194233.968477) can0 04C#106FFFC000000000
(1513194233.971138) can0 156#9100000003000000
(1513194233.971464) can0 076#BE87EFFC091D7800
(1513194233.971708) can0 166#75200000E8330000
(1513194233.972109) can0 167#72803810001A6800
(1513194233.972333) can0 171#646C000000000000
(1513194233.972586) can0 178#000001FF0E84CA83
(1513194233.972708) can0 179#1A680000BAB40998
(1513194233.973224) can0 202#0455380060991D83
(1513194233.973457) can0 204#C0007D02ED000000
(1513194233.974085) can0 261#0000000000000000
(1513194233.974194) can0 262#0000000000000000
(1513194233.974443) can0 421#0200580000006400
(1513194233.974693) can0 42D#0002C9000000F000
(1513194233.974943) can0 42F#7D04002E662A02ED
(1513194233.975695) can0 43E#0061100000000000
(1513194233.975939) can0 2A4#24027D00023B0002
(1513194233.976568) can0 20A#01B0000000004E20
(1513194233.979069) can0 213#FFFF000400020040
(1513194233.979579) can0 216#FD20161800000000
(1513194233.980080) can0 415#1D83D85608060806
(1513194233.981079) can0 167#72803810001A6800
(1513194233.981335) can0 077#F7FF17FF5001C101
(1513194233.981591) can0 109#176B31001D830000
(1513194233.981835) can0 202#0455400060991D82
(1513194233.982055) can0 204#C0007D02EE000000
(1513194233.985803) can0 076#BE88EFFC081D7A00
(1513194233.986051) can0 2A4#25030B0000000000
(1513194233.991315) can0 167#72803810001A6800
(1513194233.991812) can0 202#0454480060991D82
(1513194233.992048) can0 204#C0007D02EE000000
(1513194233.995936) can0 20A#01B0000000004E20
(1513194233.996172) can0 3CA#EBC4000004000000
(1513194233.998811) can0 213#FFFF000400020140
(1513194233.999315) can0 216#183A303200000000
(1513194233.999809) can0 415#1D8CDC4C08060806
(1513194234.001059) can0 167#72803810001A6800
(1513194234.001294) can0 171#646C000000000000
(1513194234.001544) can0 076#BE88F014021D7B00
(1513194234.001793) can0 077#F80017FF5001C101
(1513194234.002044) can0 202#0452500060991D83
(1513194234.002293) can0 204#C0007D02EE000000
(1513194234.002543) can0 42F#7D04002E662A02ED
(1513194234.005667) can0 287#0000000000000000
(1513194234.005917) can0 30A#D700000000000000
(1513194234.006166) can0 412#0000000000000000
(1513194234.006417) can0 346#000000030300C000
(1513194234.006687) can0 348#0000000000000000
(1513194234.006970) can0 430#450035F608002401
(1513194234.007184) can0 434#43DC700020FFF3E3
(1513194234.011316) can0 167#72803810001A6800
(1513194234.011816) can0 202#0450580060991D84
(1513194234.012040) can0 204#C0007D02EE000000
(1513194234.015824) can0 076#3E88D014021D7B00
(1513194234.016059) can0 20A#01B0000000004E20
(1513194234.018858) can0 213#FFFF000400020040
(1513194234.019307) can0 216#32534A4C00000000
(1513194234.021114) can0 415#1D8EE04908070807
(1513194234.021322) can0 167#72803810001A6800
(1513194234.021432) can0 077#F80117FF5001C101
(1513194234.021680) can0 202#044E600060991D85
(1513194234.022051) can0 204#C0007D02ED000000
(1513194234.022169) can0 261#0000000000000000
(1513194234.023061) can0 43E#0061100000000000
(1513194234.026057) can0 3CA#EBC4000004000000
(1513194234.031308) can0 167#72803810001A6800
(1513194234.031541) can0 171#646C000000000000
(1513194234.032054) can0 202#044C680060991D86
(1513194234.032285) can0 204#C0007D02ED000000
(1513194234.032783) can0 42F#7D04002E662A02ED
(1513194234.035321) can0 084#1100015B2B3B0E00
(1513194234.035678) can0 315#0000000000000949
(1513194234.035803) can0 2A4#1024898200007D00
(1513194234.036053) can0 076#BE88EFFC001D7A00
(1513194234.036304) can0 20A#01B0000000004E20
(1513194234.037303) can0 2AC#3000000000000000
(1513194234.039069) can0 213#FFFF000400020040
(1513194234.040055) can0 216#4C6D646500000000
(1513194234.041052) can0 415#1D8AE44C08070807
(1513194234.041182) can0 167#72803810001A6800
(1513194234.041426) can0 202#044A700060991D87
(1513194234.041675) can0 077#F80017FF5001C101
(1513194234.042048) can0 204#C0007D02EE000000
(1513194234.042171) can0 416#5500F90001000000
(1513194234.045815) can0 2A4#21007D00007D0000
(1513194234.050939) can0 076#BE85EFF4061D7A00
(1513194234.051562) can0 167#72803810001A6800
(1513194234.052069) can0 202#0449780060991D87
(1513194234.052274) can0 204#C0007D02EE000000
(1513194234.054561) can0 290#0000000000000000
(1513194234.055687) can0 2A4#227D00007D000221
(1513194234.056021) can0 048#000000000700E000
(1513194234.056168) can0 20A#01B0000000004E20
(1513194234.056418) can0 3CA#EBC4000004000000
(1513194234.056668) can0 412#0000000000000000
(1513194234.056904) can0 433#0000000000900000
(1513194234.057146) can0 470#019BC09800102000
(1513194234.057405) can0 4A2#0000000000000000
(1513194234.058544) can0 081#0000000000000000
(1513194234.060027) can0 18A#0020180114000000
(1513194234.060644) can0 213#FFFF000400020040
(1513194234.061036) can0 167#72803810001A6800
(1513194234.061274) can0 216#66877D8100000000
(1513194234.061396) can0 171#646C000000000000
(1513194234.061647) can0 202#0457000060991D88
(1513194234.062062) can0 204#C0007D02EF000000
(1513194234.062400) can0 2A1#FFFFFFFF00000000
(1513194234.062649) can0 3E6#0001040880000000
(1513194234.062896) can0 415#1D88E84D08070807
(1513194234.063150) can0 42F#7D04002E662A02ED
(1513194234.065806) can0 2A4#2300021900022C00
(1513194234.066017) can0 076#BE85EFFC0B1D7B00
(1513194234.068406) can0 04C#106FFFC000000000
(1513194234.071017) can0 156#9100000003000000
(1513194234.071518) can0 166#75200000E8330000
(1513194234.072016) can0 167#72803810001A6800
(1513194234.072278) can0 178#000002000E84CA83
(1513194234.072514) can0 179#1A680000BABF09A1
(1513194234.073012) can0 202#0457080060991D87
(1513194234.073260) can0 204#C0007D02EF000000
(1513194234.073760) can0 261#0000000000000000
(1513194234.074008) can0 262#0000000000000000
(1513194234.074133) can0 421#0200580000006400
(1513194234.074382) can0 42D#0002C9000000F000
(1513194234.074900) can0 43E#0061100000000000
(1513194234.075646) can0 2A4#24027D00023B0002
(1513194234.076382) can0 20A#01B0000000004E20
(1513194234.078896) can0 213#FFFF000400020140
(1513194234.079769) can0 216#7FA1979A00000000
(1513194234.080768) can0 167#72803810001A6800
(1513194234.081003) can0 415#1D88EC4C08070807
(1513194234.081254) can0 202#0456100060991D87
(1513194234.081503) can0 076#BE85F004041D7C00
(1513194234.081764) can0 204#C0007D02EF000000
(1513194234.085649) can0 2A4#25030B0000000000
(1513194234.085890) can0 109#177B31001D870000
(1513194234.086149) can0 3CA#EBC4000004000000
(1513194234.091291) can0 167#72803810001A6800
(1513194234.091522) can0 171#646C000000000000
(1513194234.092038) can0 202#0455180060991D87
(1513194234.092272) can0 204#C0007D02EF000000
(1513194234.092670) can0 42F#7D04002E662A02ED
(1513194234.095785) can0 076#3E85D004041D7C00
(1513194234.096019) can0 20A#01B0000000004E20
(1513194234.098524) can0 3DE#0000000080000000
(1513194234.099017) can0 213#FFFF000400020140
(1513194234.100019) can0 216#99BCB1B400000000
(1513194234.101018) can0 415#1D93F04008060806
(1513194234.101133) can0 167#72803810001A6800
(1513194234.101372) can0 202#0454200060991D87
(1513194234.101621) can0 204#C0007D02ED000000
(1513194234.103282) can0 3A7#0E401A045F700000
(1513194234.105521) can0 346#000000030300C000
(1513194234.105741) can0 412#0000000000000000
(1513194234.105990) can0 348#0000000000000000
(1513194234.106242) can0 3AA#0022200000000000
(1513194234.106491) can0 3AB#1200000040000000
(1513194234.106741) can0 430#450035F608002401
(1513194234.106990) can0 434#43DC700020FFF3E3
(1513194234.111262) can0 167#72803810001A6800
(1513194234.111763) can0 202#0452280060991D88
(1513194234.111989) can0 204#C0007D02ED000000
(1513194234.115767) can0 076#BE85F004041D7E00
(1513194234.115989) can0 20A#01B0000000004E20
(1513194234.116112) can0 3CA#EBC4000004000000
(1513194234.119255) can0 213#FFFF000400020040
(1513194234.119769) can0 216#B3D6CBCE00000000
(1513194234.120763) can0 415#1D91F44108060806
(1513194234.120985) can0 167#72803810001A6800
(1513194234.121238) can0 077#F7FF17FF5001C101
(1513194234.121496) can0 171#646C000000000000
(1513194234.121738) can0 202#044F300060991D8A
(1513194234.121984) can0 204#C0007D02EE000000
(1513194234.122236) can0 261#0000000000000000
(1513194234.122996) can0 42F#7D04002E662A02ED
(1513194234.123361) can0 43E#0061100000000000
(1513194234.126249) can0 40A#C00000176E975200
(1513194234.131006) can0 076#BE86EFFC041D7D00
(1513194234.131238) can0 167#72803810001A6800
(1513194234.131484) can0 3A6#0E401A045F700000
(1513194234.131732) can0 202#044D380060991D8B
(1513194234.131980) can0 204#C0007D02EE000000
(1513194234.135519) can0 315#0000000000000955
(1513194234.135731) can0 20A#01B0000000004E20
(1513194234.135980) can0 2A4#1024898200007D00
(1513194234.137269) can0 2AC#3000000000000000
(1513194234.139132) can0 213#FFFF000400020040
(1513194234.139631) can0 216#CEEFE6E800000000
(1513194234.140764) can0 415#1D8DF84408060806
(1513194234.140977) can0 167#72803810001A6700
(1513194234.141228) can0 202#044C400060991D8B
(1513194234.141476) can0 077#F80017FF5001C101
(1513194234.141725) can0 204#C0007D02EF000000
(1513194234.141977) can0 416#5600F80001000000
(1513194234.145613) can0 076#BE86EFF4061D7D00
(1513194234.145853) can0 2A4#21007D00007D0000
(1513194234.145974) can0 3CA#EBC4000004000000
(1513194234.151513) can0 167#72803810001A6700
(1513194234.151722) can0 171#646C000000000000
(1513194234.152259) can0 202#044B480060991D8B
(1513194234.152472) can0 204#C0007D02EF000000
(1513194234.153010) can0 42F#7D04002E662A02ED
(1513194234.155011) can0 59E#9E00FFFFFFFFFFFF
(1513194234.155601) can0 2A4#227D00007D000221
(1513194234.155846) can0 048#000000000700E000
(1513194234.156096) can0 077#180017FF5001C001
(1513194234.156346) can0 108#0004040040009E64
(1513194234.156596) can0 14C#0800000100000000
(1513194234.156721) can0 20A#01B0000000004E20
(1513194234.157106) can0 276#0000000000000000
(1513194234.157222) can0 277#0800000002838888
(1513194234.157468) can0 279#0050003C00960000
(1513194234.157718) can0 303#000008040E052000
(1513194234.157968) can0 38A#4300200208470000
(1513194234.158217) can0 3B3#4040001292050100
(1513194234.158467) can0 3D0#034F059488000000
(1513194234.158717) can0 412#0000000000000000
(1513194234.158967) can0 42C#B030C480640004A8
(1513194234.159227) can0 431#0000208008400086
(1513194234.159484) can0 432#2680000000040000
(1513194234.159715) can0 433#0000000000900000
(1513194234.159966) can0 18A#0020180114000000
(1513194234.160234) can0 213#FFFF000400020040
(1513194234.160468) can0 435#0000000000000000
(1513194234.160719) can0 46A#0004208800000000
(1513194234.160967) can0 46B#D1A045F820008000
(1513194234.161090) can0 167#72803810001A6700
(1513194234.161342) can0 202#044A500060991D8B
(1513194234.161592) can0 204#C0007D02EF000000
(1513194234.161842) can0 216#E809000100000000
(1513194234.162090) can0 076#BE86EFDC071D7E00
(1513194234.162340) can0 2A1#FFFFFFFF00000000
(1513194234.162600) can0 470#019BC09800102000
(1513194234.162842) can0 415#1D88FC4808060806
(1513194234.163090) can0 4A2#0000000000000000
(1513194234.165601) can0 2A4#2300021900022C00
(1513194234.168372) can0 04C#106FFFC000000000
(1513194234.169495) can0 22C#000A000000000000
(1513194234.171119) can0 156#9100000003000000
(1513194234.171354) can0 360#6000018000910000
(1513194234.171604) can0 077#E80117FF50004101
(1513194234.171885) can0 166#75200000E8330000
(1513194234.172106) can0 167#72803810001A6800
(1513194234.172353) can0 361#054D313831380000
(1513194234.172628) can0 178#000002000E84CA83
(1513194234.172833) can0 179#1A680000BAC909AC
(1513194234.173082) can0 202#044A580060991D8A
(1513194234.173333) can0 204#C0007D02EF000000
(1513194234.173868) can0 261#0000000000000000
(1513194234.174127) can0 262#0000000000000000
(1513194234.174382) can0 421#0200580000006400
(1513194234.174603) can0 42D#0002C9000000F000
(1513194234.174984) can0 43E#0061100000000000
(1513194234.175608) can0 2A4#24027D00023B0002
(1513194234.176234) can0 076#3E86CFDC061D7E00
(1513194234.176485) can0 20A#01B0000000004E20
(1513194234.176741) can0 3CA#EBC4000004000000
(1513194234.178983) can0 3E7#0000000000000000
(1513194234.179379) can0 213#FFFF000400020040
(1513194234.179746) can0 216#02231A1B00000000
(1513194234.180744) can0 415#1D8BC05408050805
(1513194234.181012) can0 167#72803810001A6800
(1513194234.181229) can0 171#646C000000000000
(1513194234.181478) can0 202#0449600060991D8A
(1513194234.181715) can0 204#C0007D02ED000000
(1513194234.182484) can0 42F#7D04002E662A02ED
(1513194234.185589) can0 591#9100FFFFFFFFFFFF
(1513194234.185836) can0 2A4#25030B0000000000
(1513194234.190612) can0 109#176B31001D8A0000
(1513194234.190826) can0 307#0100000000000000
(1513194234.191205) can0 167#72803810001A6700
(1513194234.191703) can0 202#0449680060991D89
(1513194234.191954) can0 204#C0007D02ED000000
(1513194234.195616) can0 076#BE86EFFC041D7F00
(1513194234.195830) can0 20A#01B0000000004E20
(1513194234.199237) can0 213#FFFF000400020040
(1513194234.199722) can0 216#1C3D333500000000
(1513194234.200987) can0 415#1D8FC44F08050805
(1513194234.201203) can0 167#72803810001A6700
(1513194234.201326) can0 202#0448700060991D89
(1513194234.201577) can0 204#C0007D02EC000000
(1513194234.205359) can0 18B#0000001E00000000
(1513194234.205596) can0 3CA#EBC4000004000000
(1513194234.206044) can0 19A#0000000240000000
(1513194234.206070) can0 412#0000000000000000
(1513194234.206326) can0 220#1001000000000000
(1513194234.206574) can0 225#2041800000000000
(1513194234.206961) can0 287#0000000000000000
(1513194234.207072) can0 2F4#1001000000000000
(1513194234.207323) can0 2FD#0D000238FC000000
(1513194234.207580) can0 30A#D700000000000000
(1513194234.207955) can0 30F#0000000000000000
(1513194234.208078) can0 313#0008000000100000
(1513194234.208320) can0 315#0000000000000955
(1513194234.208571) can0 316#0000000000000000
(1513194234.208943) can0 317#03FE000809000400
(1513194234.209068) can0 318#000000000012B600
(1513194234.209443) can0 346#000000030300C000
(1513194234.209694) can0 348#0000000000000000
(1513194234.209944) can0 350#0000000000000000
(1513194234.210195) can0 353#00000000002CB0AC
(1513194234.210448) can0 3C8#0000000000000000
(1513194234.210696) can0 3E0#0000000080000000
(1513194234.210946) can0 3FB#0000000004000000
(1513194234.211193) can0 430#450035F608002401
(1513194234.211442) can0 167#72803810001A6700
(1513194234.211692) can0 171#646C000000000000
(1513194234.211953) can0 434#43DC700020FFF3E3
(1513194234.212068) can0 202#0446780060991D8A
(1513194234.212320) can0 204#C0007D02EC000000
(1513194234.212573) can0 45A#0000000000000000
(1513194234.212952) can0 42F#7D04002E662A02ED
(1513194234.216215) can0 076#BE86EFFC001D7F00
(1513194234.216456) can0 20A#01B0000000004E20
(1513194234.219197) can0 213#FFFF00040001FF40
(1513194234.219578) can0 216#35574D4F00000000
(1513194234.220839) can0 415#1D8DC85008050805
(1513194234.221059) can0 167#72803810001A6700
(1513194234.221310) can0 202#0455000060991D8A
(1513194234.221560) can0 204#C0007D02EE000000
(1513194234.221935) can0 261#0000000000000000
(1513194234.222840) can0 43E#0061100000000000
(1513194234.230832) can0 076#BE87EFEC001D7E00
(1513194234.231214) can0 167#72803810001A6800
(1513194234.231710) can0 202#0453080060991D8B
(1513194234.231940) can0 204#C0007D02EE000000
(1513194234.235343) can0 315#0000000000000961
(1513194234.235560) can0 2A4#1024898200007D00
(1513194234.235812) can0 20A#01B0000000004E20
(1513194234.236060) can0 3CA#EBC4000004000000
(1513194234.237217) can0 2AC#3000000000000000
(1513194234.238718) can0 3E7#0000000000000000
(1513194234.238931) can0 213#FFFF000400020040
(1513194234.239454) can0 216#4F72676900000000
(1513194234.239953) can0 415#1D8CCC5008050805
(1513194234.240591) can0 416#5700F70001000000
(1513194234.240948) can0 167#72803810001A6800
(1513194234.241183) can0 171#646C000000000000
(1513194234.241464) can0 202#0452100060991D8B
(1513194234.241694) can0 204#C0007D02ED000000
(1513194234.242340) can0 42F#7D04002E662A02ED
(1513194234.245463) can0 04A#0200000000000000
(1513194234.245696) can0 04B#00C0D8D8D8D8C000
(1513194234.245970) can0 076#BE87EFE4061D7E00
(1513194234.246173) can0 2A4#21007D00007D0000
(1513194234.251431) can0 167#72803810001A6700
(1513194234.251939) can0 202#0452180060991D8A
(1513194234.252197) can0 204#C0007D02ED000000
(1513194234.254435) can0 290#0000000000000000
(1513194234.255443) can0 2A4#227D00007D000221
(1513194234.255699) can0 048#000000000700E000
(1513194234.255946) can0 20A#01B0000000004E20
(1513194234.256191) can0 412#0000000000000000
(1513194234.256445) can0 433#0000000000900000
(1513194234.256680) can0 470#019BC09800102000
(1513194234.256917) can0 4A2#0000000000000000
(1513194234.259299) can0 18A#0020180114000000
(1513194234.259539) can0 213#FFFF000400020040
(1513194234.260540) can0 216#698C818400000000
(1513194234.260790) can0 167#72803810001A6700
(1513194234.261039) can0 2A1#FFFFFFFF00000000
(1513194234.261289) can0 076#BE87EFEC071D7F00
(1513194234.261538) can0 202#0451200060991D8A
(1513194234.261788) can0 204#C0007D02EB000000
(1513194234.262176) can0 415#1D88D05308050805
(1513194234.265438) can0 2A4#2300021900022C00
(1513194234.265671) can0 3CA#EBC4000004000000
(1513194234.268535) can0 04C#106FFFC000000000
(1513194234.270950) can0 156#9100000003000000
(1513194234.271699) can0 166#75200000E8330000
(1513194234.271925) can0 167#72803810001A6700
(1513194234.272176) can0 171#646C000000000000
(1513194234.272419) can0 178#000001FE0E84CA83
(1513194234.272669) can0 179#1A670000BAD409B2
(1513194234.273183) can0 202#0450280060991D8A
(1513194234.273418) can0 204#C0007D02EB000000
(1513194234.273914) can0 261#0000000000000000
(1513194234.274168) can0 262#0000000000000000
(1513194234.274418) can0 421#0200580000006400
(1513194234.274667) can0 42D#0002C9000000F000
(1513194234.274917) can0 42F#7D04002E662A02ED
(1513194234.275417) can0 2A4#24027D00023B0002
(1513194234.275660) can0 43E#0061100000000000
(1513194234.276293) can0 076#3E87CFEC061D7F00
(1513194234.276532) can0 20A#01B0000000004E20
(1513194234.278800) can0 213#FFFF000400020040
(1513194234.279326) can0 216#84A59A9E00000000
(1513194234.280418) can0 415#1D8BD44F08050805
(1513194234.280791) can0 167#72803810001A6700
(1513194234.281041) can0 202#0450300060991D89
(1513194234.281282) can0 204#C0007D02E9000000
(1513194234.285428) can0 2A4#25030B0000000000
(1513194234.291214) can0 167#72803710001A6700
(1513194234.291685) can0 202#044F380060991D89
(1513194234.291904) can0 204#C0007D02E9000000
(1513194234.294435) can0 45E#30010A0508000000
(1513194234.295431) can0 076#BE87F004041D8000
(1513194234.295651) can0 109#174B31001D890000
(1513194234.295932) can0 20A#01B0000000004E20
(1513194234.296151) can0 3CA#EBC4000004000000
(1513194234.298799) can0 213#FFFF000400020040
(1513194234.299304) can0 216#9EBFB6B700000000
(1513194234.299678) can0 415#1D88D85108050805
(1513194234.300804) can0 167#72803710001A6700
(1513194234.301023) can0 171#646C000000000000
(1513194234.301148) can0 202#044F400060991D88
(1513194234.301398) can0 3A7#0E401A045F700000
(1513194234.301679) can0 204#C0007D02E9000000
(1513194234.301898) can0 42F#7D04002E662A02ED
(1513194234.305295) can0 346#000000030300C000
(1513194234.305528) can0 412#0000000000000000
(1513194234.305777) can0 348#0000000000000000
(1513194234.306029) can0 3AA#0022200000000000
(1513194234.306275) can0 430#450035F608002401
(1513194234.306522) can0 3AB#1200000040000000
(1513194234.306778) can0 434#43DC700020FFF3E3
(1513194234.311152) can0 167#72803710001A6700
(1513194234.311650) can0 202#044E480060991D88
(1513194234.311894) can0 204#C0007D02E9000000
(1513194234.315548) can0 076#BE87F004001D8000
(1513194234.315654) can0 20A#01B0000000004E20
(1513194234.318792) can0 213#FFFF000400020040
(1513194234.319168) can0 216#B8D9CFD100000000
(1513194234.319664) can0 415#1D86DC5208050805
(1513194234.320675) can0 167#72803710001A6700
(1513194234.320914) can0 202#044E500060991D87
(1513194234.321137) can0 204#C0007D02E9000000
(1513194234.321696) can0 261#0000000000000000
(1513194234.322415) can0 43E#0061100000000000
(1513194234.325538) can0 3CA#EBC4000004000000
(1513194234.325896) can0 38D#2000000000000000
(1513194234.326895) can0 3B8#FFFFFFFF00000000
(1513194234.327276) can0 3E3#0001041380026400
(1513194234.327520) can0 3EC#C604140000100000
(1513194234.328074) can0 40A#C100334641365030
(1513194234.328698) can0 447#2100000004000000
(1513194234.330791) can0 076#BE88EFEC041D7F00
(1513194234.331283) can0 167#72803710001A6700
(1513194234.331516) can0 171#646C000000000000
(1513194234.332031) can0 202#044D580060991D87
(1513194234.332129) can0 3A6#0E401A045F700000
(1513194234.332384) can0 204#C0007D02E9000000
(1513194234.332631) can0 42F#7D04002E662A02ED
(1513194234.334413) can0 45E#40520022D0000000
(1513194234.335289) can0 315#0000000000000951
(1513194234.335506) can0 2A4#1024898200007D00
(1513194234.335777) can0 20A#01B0000000004E20
(1513194234.337154) can0 2AC#3000000000000000
(1513194234.338781) can0 213#FFFF000400020040
(1513194234.339279) can0 216#D1F3E9EB00000000
(1513194234.340404) can0 415#1D8BE04C08050805
(1513194234.340627) can0 416#5800F60001000000
(1513194234.340877) can0 167#72803710001A6700
(1513194234.341128) can0 202#044D600060991D86
(1513194234.341377) can0 204#C0007D02E7000000
(1513194234.345271) can0 076#BE88EFE4061D8000
(1513194234.345503) can0 2A4#21007D00007D0000
(1513194234.351649) can0 167#72803710001A6600
(1513194234.352148) can0 202#044B680060991D87
(1513194234.352371) can0 204#C0007D02E7000000
(1513194234.355008) can0 331#C0D305950A370C04
(1513194234.355275) can0 2A4#227D00007D000221
(1513194234.355525) can0 048#000000000700E000
(1513194234.355898) can0 14C#0800000100000000
(1513194234.355993) can0 20A#01B0000000004E20
(1513194234.356251) can0 3CA#EBC4000004000000
(1513194234.356504) can0 3D0#0240059588000000
(1513194234.356901) can0 412#0000000000000000
(1513194234.356991) can0 18A#0020180114000000
(1513194234.357271) can0 433#0000000000900000
(1513194234.357503) can0 470#019BC09800102000
(1513194234.357754) can0 4A2#0000000000000000
(1513194234.359002) can0 213#FFFF000400020040
(1513194234.359517) can0 216#EB0C030500000000
(1513194234.360388) can0 2A1#FFFFFFFF00000000
(1513194234.360626) can0 415#1D7EE45808060806
(1513194234.360876) can0 167#72803710001A6600
(1513194234.361125) can0 076#BE88EFEC031D8000
(1513194234.361376) can0 171#646C000000000000
(1513194234.361625) can0 202#044A700060991D87
(1513194234.361876) can0 204#C0007D02E9000000
(1513194234.362125) can0 42F#7D04002E662A02ED
(1513194234.365388) can0 2A4#2300021900022C00
(1513194234.368389) can0 04C#106FFFC000000000
(1513194234.369263) can0 2A0#FFFFFFFF00001E00
(1513194234.371019) can0 156#9100000003000000
(1513194234.371753) can0 166#75200000E8330000
(1513194234.371864) can0 167#72803710001A6600
(1513194234.372253) can0 178#000001FF0E84CA83
(1513194234.372362) can0 179#1A660000BADE09BA
(1513194234.372878) can0 202#044B780060991D85
(1513194234.373129) can0 204#C0007D02E9000000
(1513194234.373621) can0 261#0000000000000000
(1513194234.373872) can0 262#0000000000000000
(1513194234.374119) can0 421#0200580000006400
(1513194234.374369) can0 42D#0002C8000000F000
(1513194234.374619) can0 45E#01132B370D0C0300
(1513194234.374870) can0 43E#0061100000000000
(1513194234.375120) can0 3B4#401111FF25250000
(1513194234.375369) can0 2A4#24027D00023B0002
(1513194234.376009) can0 076#3E88CFEC021D8000
(1513194234.376245) can0 20A#01B0000000004E20
(1513194234.378757) can0 213#FFFF000400020040
(1513194234.379255) can0 216#05261D1E00000000
(1513194234.379628) can0 415#1D86E84F08060806
(1513194234.380772) can0 167#72803710001A6600
(1513194234.381002) can0 202#045A000060991D85
(1513194234.381252) can0 204#C0007D02E9000000
(1513194234.385258) can0 2A4#25030B0000000000
(1513194234.385506) can0 3CA#EBC4000004000000
(1513194234.385877) can0 3B5#0117010B010700FF
(1513194234.391183) can0 167#72803710001A6600
(1513194234.391363) can0 171#646C000000000000
(1513194234.391876) can0 202#0459080060991D85
(1513194234.392121) can0 204#C0007D02E9000000
(1513194234.392640) can0 42F#7D04002E662A02ED
(1513194234.395391) can0 076#BE88EFF4001D8000
(1513194234.395606) can0 20A#01B0000000004E20
(1513194234.398764) can0 213#FFFF00040001FF40
(1513194234.399261) can0 216#1F41363800000000
(1513194234.400377) can0 415#1D8CEC4808060806
(1513194234.400757) can0 167#72803710001A6600
(1513194234.400982) can0 109#174B31001D850000
(1513194234.401099) can0 1E6#800CE80700000000
(1513194234.401356) can0 202#0458100060991D85
(1513194234.401598) can0 204#C0007D02EB000000
(1513194234.405107) can0 287#0000000000000000
(1513194234.405355) can0 412#0000000000000000
(1513194234.405604) can0 30A#D700000000000000
(1513194234.405853) can0 42C#B030C480640004A9
(1513194234.406103) can0 346#000000030300C000
(1513194234.406354) can0 348#0000000000000000
(1513194234.406604) can0 430#450035F608002401
(1513194234.406854) can0 434#43DC700020FFF3E3
(1513194234.411122) can0 167#72803710001A6600
(1513194234.411622) can0 202#0456180060991D86
(1513194234.411848) can0 204#C0007D02EB000000
(1513194234.413366) can0 168#0000000000000000
(1513194234.414404) can0 45E#115EFC674AE66C90
(1513194234.415368) can0 076#BE88EFFBFE1D7F00
(1513194234.415476) can0 20A#01B0000000004E20
(1513194234.415838) can0 3CA#EBC4000004000000
(1513194234.418741) can0 213#FFFF00040001FF40
(1513194234.419240) can0 216#385B505200000000
(1513194234.419740) can0 415#1D87F04C08060806
(1513194234.420773) can0 167#72803710001A6600
(1513194234.420979) can0 171#646C000000000000
(1513194234.421396) can0 202#0456200060991D85
(1513194234.421600) can0 204#C0007D02E9000000
(1513194234.421985) can0 261#0000000000000000
(1513194234.422363) can0 42F#7D04002E662A02ED
(1513194234.422865) can0 43E#0061100000000000
(1513194234.425868) can0 3B2#4048061210050002
(1513194234.426101) can0 3C3#60C0000000004000
(1513194234.430652) can0 076#BE83EFF4001D7E00
(1513194234.431112) can0 167#72803710001A6700
(1513194234.431604) can0 202#0455280060991D85
(1513194234.431839) can0 204#C0007D02E9000000
(1513194234.434474) can0 3E2#0000000080000000
(1513194234.434722) can0 3EA#0000000000006000
(1513194234.435098) can0 315#0000000000000955
(1513194234.435346) can0 2A4#1024898200007D00
(1513194234.435596) can0 20A#01B0000000004E20
(1513194234.437101) can0 2AC#3000000000000000
(1513194234.438714) can0 213#FFFF00040001FF40
(1513194234.439213) can0 216#54756A6C00000000
(1513194234.439702) can0 415#1D86F44C08060806
(1513194234.440588) can0 416#5900F50001000000
(1513194234.440836) can0 167#72803710001A6700
(1513194234.441089) can0 202#0454300060991D85
(1513194234.441325) can0 204#C0007D02E6000000
(1513194234.441576) can0 58C#8C00FFFFFFFFFFFF
(1513194234.445213) can0 076#BE83EFDC0A1D7F00
(1513194234.445447) can0 2A4#21007D00007D0000
(1513194234.445698) can0 3CA#EBC4000004000000
(1513194234.451355) can0 167#72803710001A6700
(1513194234.451572) can0 171#646C000000000000
(1513194234.452104) can0 202#0453380060991D85
(1513194234.452320) can0 204#C0007D02E6000000
(1513194234.452848) can0 42F#7D04002E662A02EC
(1513194234.454230) can0 192#B010000000000000
(1513194234.454445) can0 215#0000000000000000
(1513194234.454853) can0 222#4000000000000000
(1513194234.455068) can0 227#0000000000000A00
(1513194234.455351) can0 2A4#227D00007D000221
(1513194234.455567) can0 229#0000030000000000
(1513194234.455817) can0 048#000000000700E000
(1513194234.456066) can0 20A#01B0000000004E20
(1513194234.456317) can0 290#0000000000000000
(1513194234.456443) can0 18A#0020180114000000
(1513194234.456816) can0 2D0#7704100700000000
(1513194234.456953) can0 412#0000000000000000
(1513194234.457193) can0 2D1#0000000000000000
(1513194234.457441) can0 433#0000000000900000
(1513194234.457817) can0 2D2#0000000000000000
(1513194234.457941) can0 470#019BC09800102000
(1513194234.458214) can0 2E0#000F000000000000
(1513194234.458464) can0 4A2#0000000000000000
(1513194234.458818) can0 2E3#0200000000000000
(1513194234.458943) can0 213#FFFF000400020040
(1513194234.459192) can0 2EE#000A050040400000
(1513194234.459463) can0 216#6D8F848700000000
(1513194234.459838) can0 320#00000000000FFE00
(1513194234.459966) can0 321#0000000000000000
(1513194234.460325) can0 34E#0000000000000000
(1513194234.460450) can0 2A1#FFFFFFFF00000000
(1513194234.460825) can0 35B#000000FE00000000
(1513194234.460950) can0 167#72803710001A6700
(1513194234.461200) can0 202#0452400060991D85
(1513194234.461449) can0 076#BE83EFE4071D8000
(1513194234.461701) can0 204#C0007D02E5000000
(1513194234.461968) can0 362#0000000000000000
(1513194234.462199) can0 415#1D82F84F08050805
(1513194234.462443) can0 3DA#0264000000000000
(1513194234.462819) can0 3F0#0000000000000000
(1513194234.462943) can0 3F1#0000000000000001
(1513194234.463193) can0 45E#27BC1902F854A800
(1513194234.465346) can0 2A4#2300021900022C00
(1513194234.468324) can0 04C#106FFFC000000000
(1513194234.470976) can0 156#9100000003000000
(1513194234.471725) can0 166#75200000E8330000
(1513194234.471811) can0 167#72803710001A6700
(1513194234.472201) can0 178#000001FD0E84CA83
(1513194234.472313) can0 179#1A670000BAE909C3
(1513194234.472848) can0 202#0452480060991D84
(1513194234.473076) can0 204#C0007D02E5000000
(1513194234.473585) can0 261#0000000000000000
(1513194234.473841) can0 262#0000000000000000
(1513194234.474085) can0 421#0200580000006400
(1513194234.474307) can0 42D#0002C8000000F000
(1513194234.474820) can0 43E#0061100000000000
(1513194234.475181) can0 2A4#24027D00023B0002
(1513194234.475946) can0 076#3E83CFE4061D8000
(1513194234.476209) can0 20A#01B0000000004E20
(1513194234.476457) can0 3CA#EBC4000004000000
(1513194234.478820) can0 213#FFFF000400020040
(1513194234.479196) can0 216#87A89FA100000000
(1513194234.479696) can0 415#1D88FC4808050805
(1513194234.480695) can0 167#72803710001A6700
(1513194234.480964) can0 171#646C000000000000
(1513194234.481205) can0 202#0451500060991D84
(1513194234.481428) can0 204#C0007D02E7000000
(1513194234.481829) can0 42F#7D04002E662A02EC
(1513194234.485190) can0 2A4#25030B0000000000
(1513194234.490335) can0 076#BE82EFF4021D8100
(1513194234.491116) can0 167#72803710001A6700
(1513194234.491587) can0 202#044F580060991D85
(1513194234.491801) can0 204#C0007D02E7000000
(1513194234.494299) can0 45E#715EFC694AE66B90
(1513194234.495303) can0 20A#01B0000000004E20
(1513194234.498818) can0 213#FFFF00040001FF40
(1513194234.499184) can0 216#A1C2B9BA00000000
(1513194234.499681) can0 415#1D8DC05208040804
(1513194234.499931) can0 3A7#0E401A045F700000
(1513194234.500696) can0 167#72803810001A6700
(1513194234.500932) can0 202#044D600060991D86
(1513194234.501181) can0 204#C0007D02E8000000
(1513194234.505070) can0 346#000000030300C000
(1513194234.505294) can0 076#BE82EFEC001D8100
(1513194234.505417) can0 109#174331001D860000
(1513194234.505793) can0 348#0000000000000000
(1513194234.505928) can0 3AA#0022200000000000
(1513194234.506178) can0 3CA#EBC4000004000000
(1513194234.506429) can0 3AB#1200000040000000
(1513194234.506802) can0 412#0000000000000000
(1513194234.506917) can0 430#450035F608002401
(1513194234.507168) can0 434#43DC700020FFF3E3
(1513194234.511064) can0 167#72803810001A6700
(1513194234.511301) can0 171#646C000000000000
(1513194234.511814) can0 202#044C680060991D86
(1513194234.512051) can0 204#C0007D02E8000000
(1513194234.512573) can0 42F#7D04002E662A02EC
(1513194234.515327) can0 20A#01B0000000004E20
(1513194234.518706) can0 213#FFFF00040001FF40
(1513194234.519165) can0 216#BBDCD3D400000000
(1513194234.520316) can0 415#1D8AC45408040804
(1513194234.520672) can0 167#72803810001A6700
(1513194234.520911) can0 076#BE82EFDC041D8000
(1513194234.521052) can0 202#044A700060991D87
(1513194234.521297) can0 204#C0007D02EA000000
(1513194234.521693) can0 261#0000000000000000
(1513194234.522561) can0 43E#0061100000000000
(1513194234.525921) can0 40A#C1014B3931485232
(1513194234.527808) can0 169#0083C00000000000
(1513194234.531069) can0 167#72803810001A6700
(1513194234.531292) can0 3A6#0E401A045F700000
(1513194234.531532) can0 202#0449780060991D87
(1513194234.531784) can0 204#C0007D02EA000000
(1513194234.534486) can0 45E#815EFCD94AE66A30
(1513194234.535075) can0 2A4#1024898200007D00
(1513194234.535408) can0 076#3E82CFDC041D8000
(1513194234.535659) can0 20A#01B0000000004E20
(1513194234.535904) can0 3CA#EBC4000004000000
(1513194234.537069) can0 2AC#3000000000000000
(1513194234.538733) can0 213#FFFF00040001FF40
(1513194234.539156) can0 216#D5F7ECEE00000000
(1513194234.539530) can0 415#1D8EC84F08030803
(1513194234.540310) can0 416#5A00F40001000000
(1513194234.540652) can0 167#72803810001A6700
(1513194234.540906) can0 171#646C000000000000
(1513194234.541031) can0 202#0457000060991D88
(1513194234.541413) can0 204#C0007D02EA000000
(1513194234.542055) can0 42F#7D04002E662A02EC
(1513194234.545049) can0 2A4#21007D00007D0000
(1513194234.550179) can0 076#BE80EFEC061D8100
(1513194234.551338) can0 167#72803810001A6700
(1513194234.551776) can0 202#0455080060991D89
(1513194234.552022) can0 204#C0007D02EA000000
(1513194234.553934) can0 5C6#C600FFFFFFFFFFFF
(1513194234.555038) can0 18A#0020180114000000
(1513194234.555272) can0 2A4#227D00007D000221
(1513194234.555518) can0 048#000000000700E000
(1513194234.555772) can0 14C#0800000100000000
(1513194234.556019) can0 20A#01B0000000004E20
(1513194234.556274) can0 412#0000000000000000
(1513194234.556519) can0 433#0000000000900000
(1513194234.556777) can0 470#019BC09800102000
(1513194234.557018) can0 4A2#0000000000000000
(1513194234.558906) can0 213#FFFF000400020040
(1513194234.559407) can0 216#EE11060800000000
(1513194234.560277) can0 2A1#FFFFFFFF00000000
(1513194234.560652) can0 167#72803810001A6700
(1513194234.560903) can0 415#1D89CC5308020802
(1513194234.561154) can0 202#0454100060991D89
(1513194234.561402) can0 204#C0007D02EC000000
(1513194234.565042) can0 076#BE80EFFC051D8200
(1513194234.565289) can0 2A4#2300021900022C00
(1513194234.565538) can0 3CA#EBC4000004000000
(1513194234.568403) can0 04C#106FFFC000000000
(1513194234.570779) can0 156#9100000003000000
(1513194234.571586) can0 166#75200000E8330000
(1513194234.571763) can0 167#72803810001A6700
(1513194234.572036) can0 171#646C000000000000
(1513194234.572273) can0 178#000002010E84CA83
(1513194234.572511) can0 179#1A670000BAF309C8
(1513194234.573011) can0 202#0453180060991D89
(1513194234.573261) can0 204#C0007D02EC000000
(1513194234.573788) can0 261#0000000000000000
(1513194234.574022) can0 221#8A10080000000000
(1513194234.574271) can0 262#0000000000000000
(1513194234.574520) can0 224#A480200000000000
(1513194234.574772) can0 421#0200580000006400
(1513194234.574895) can0 228#7032EE1092469978
(1513194234.575134) can0 2A4#24027D00023B0002
(1513194234.575383) can0 42D#0002C8000000F000
(1513194234.575633) can0 331#C0D305950A370C04
(1513194234.575895) can0 42F#7D04002E662A02EC
(1513194234.576135) can0 20A#01B0000000004E20
(1513194234.576510) can0 43E#0061100000000000
(1513194234.578771) can0 213#FFFF000400020040
(1513194234.579134) can0 216#0A2B202200000000
(1513194234.580383) can0 415#1D95D04608020802
(1513194234.580633) can0 167#72803810001A6800
(1513194234.580882) can0 076#BE80EFDC081D8300
(1513194234.581131) can0 202#0452200060991D89
(1513194234.581381) can0 204#C0007D02EA000000
(1513194234.585006) can0 2A4#25030B0000000000
(1513194234.591005) can0 167#72803810001A6800
(1513194234.591504) can0 202#0450280060991D8A
(1513194234.591750) can0 204#C0007D02EA000000
(1513194234.595140) can0 3D8#0000000080C53030
(1513194234.595377) can0 076#3E80CFDC081D8300
(1513194234.595624) can0 20A#01B0000000004E20
(1513194234.595874) can0 3CA#EBC4000004000000
(1513194234.596124) can0 3CD#0000000000000000
(1513194234.598762) can0 213#FFFF000400020040
(1513194234.599125) can0 216#23453A3B00000000
(1513194234.599623) can0 415#1D92D44808010801
(1513194234.600623) can0 167#72803810001A6800
(1513194234.600871) can0 171#646C000000000000
(1513194234.601121) can0 202#044E300060991D8B
(1513194234.601374) can0 204#C0007D02EA000000
(1513194234.601885) can0 42F#7D04002E662A02EC
